(1535283830.854250) can0 3D5#0BE7008B200A1000
(1535283830.854938) can0 1E1#8101300500000000
(1535283830.855167) can0 210#0000004100000000
(1535283830.855403) can0 312#07D1000009D007D0
(1535283830.855685) can0 218#0000000000000000
(1535283830.855915) can0 308#0000000020FF03FF
(1535283830.856161) can0 3D7#048B091004F023E8
(1535283830.856420) can0 418#52FE0000BB000000
(1535283830.856681) can0 119#000000000002018F
(1535283830.856920) can0 328#0000830000A12E37
(1535283830.857169) can0 300#000D00FF0000106D
(1535283830.857391) can0 270#FC0479867F840385
(1535283830.857624) can0 208#002041B700000000
(1535283830.857889) can0 200#0005000000000000
(1535283830.859066) can0 149#2B800000DD800119
(1535283830.859949) can0 151#FFFF100067800116
(1535283830.860278) can0 0C2#D700000001900098
(1535283830.860889) can0 156#00000000062021E0
(1535283830.860941) can0 236#00
(1535283830.861813) can0 212#0000025827D040CD
(1535283830.862208) can0 230#07A0E6
(1535283830.864919) can0 218#0000000000000000
(1535283830.865166) can0 312#07D1000009D007D0
(1535283830.868500) can0 423#01200000000000
(1535283830.870319) can0 0C2#D700000001A00088
(1535283830.871826) can0 212#0000025827D05000
(1535283830.872232) can0 230#07B02B
(1535283830.874604) can0 3D5#0BE7008B200A1000
(1535283830.874944) can0 1E1#8101300500000000
(1535283830.875165) can0 210#0000004100000000
(1535283830.875439) can0 312#07D1000009D007D0
(1535283830.875933) can0 218#0000000000000000
(1535283830.875976) can0 308#0000000020FF03FF
(1535283830.876197) can0 3D7#048B091004F023E8
(1535283830.876424) can0 418#52FE0000BB000000
(1535283830.876653) can0 119#00000000000202A8
(1535283830.876928) can0 328#0000830000A22E37
(1535283830.877183) can0 300#008D00FF8000206D
(1535283830.877359) can0 270#FC0479867F840385
(1535283830.877622) can0 208#002041B700000000
(1535283830.877901) can0 200#0009000000000000
(1535283830.879096) can0 149#2B800000DA8002B4
(1535283830.879971) can0 151#FFFF1000628002B8
(1535283830.880338) can0 0C2#D700000001B00078
(1535283830.880874) can0 156#00000000082022CE
(1535283830.880945) can0 236#00
(1535283830.881823) can0 212#0000025827D0604A
(1535283830.882207) can0 230#07C072
(1535283830.884910) can0 218#0000000000000000
(1535283830.885157) can0 312#07D1000009D007D0
(1535283830.888662) can0 423#01200000000000
(1535283830.890386) can0 0C2#D700000001C00068
(1535283830.891849) can0 212#0000025827D07087
(1535283830.892263) can0 230#07D0BF
(1535283830.894415) can0 3D5#0BE7008B200A1000
(1535283830.894914) can0 0E0#0087000000000000
(1535283830.895150) can0 1E1#8101300500000000
(1535283830.895398) can0 168#000000C151000060
(1535283830.895657) can0 312#07D1000009D007D0
(1535283830.895882) can0 210#0000004100000000
(1535283830.896172) can0 218#0000000000000000
(1535283830.896407) can0 119#00000000000203B5
(1535283830.896647) can0 308#0000000020FF03FF
(1535283830.896886) can0 328#0000830000A32E37
(1535283830.897175) can0 300#008D00FF8000306D
(1535283830.897375) can0 270#FC0479867F840385
(1535283830.897592) can0 208#002041B700000000
(1535283830.897862) can0 200#004D000000000000
(1535283830.897948) can0 2F1#00
(1535283830.898202) can0 318#58090007FF630058
(1535283830.898446) can0 338#2070C10000000000
(1535283830.898698) can0 358#0974209680960974
(1535283830.898950) can0 3D7#048B091004F023E8
(1535283830.899171) can0 149#2B800000D68003A3
(1535283830.899420) can0 418#52FE0000BB000000
(1535283830.899668) can0 448#0F00000000000F1B
(1535283830.899917) can0 508#08001FF68BFC063F
(1535283830.900169) can0 518#31000000FF7FC8C8
(1535283830.900384) can0 0C2#D700000001D00058
(1535283830.900630) can0 608#4100418700000000
(1535283830.900879) can0 151#FFFF1000628003A5
(1535283830.901154) can0 236#00
(1535283830.901794) can0 212#0000025827D080F8
(1535283830.902040) can0 156#000000000A0023A5
(1535283830.902248) can0 230#07E0F5
(1535283830.904895) can0 218#0000000000000000
(1535283830.905144) can0 312#07D1000009D007D0
(1535283830.908654) can0 423#01200000000000
(1535283830.910268) can0 452#0000000000000000
(1535283830.910503) can0 0C2#D700000001E00048
(1535283830.910950) can0 512#041E1FFF00FF0000
(1535283830.911808) can0 212#0000025827D09035
(1535283830.912193) can0 230#07F038
(1535283830.914388) can0 3D5#0BE7008B200A1000
(1535283830.914919) can0 1E1#8101300500000000
(1535283830.915163) can0 210#0000004100000000
(1535283830.915379) can0 312#07D1000009D007D0
(1535283830.915661) can0 218#0000000000000000
(1535283830.915914) can0 308#0000000020FF03FF
(1535283830.916160) can0 3D7#048B091004F023E8
(1535283830.916382) can0 418#52FE0000BB000000
(1535283830.916625) can0 119#00000000000304AA
(1535283830.916876) can0 328#0000830000A42E37
(1535283830.917138) can0 300#000D00FF0000406D
(1535283830.917367) can0 270#FC0479867F840385
(1535283830.917609) can0 208#002041B700000000
(1535283830.917847) can0 200#0011000000000000
(1535283830.919064) can0 149#24800000D3800425
(1535283830.919955) can0 151#FFFF10006780047F
(1535283830.920249) can0 443#8000000000000200
(1535283830.920484) can0 0C2#D700000001F00038
(1535283830.920844) can0 156#000000000213249A
(1535283830.921138) can0 504#0000000004E30000
(1535283830.921257) can0 236#00
(1535283830.921809) can0 212#0000025827D0A07F
(1535283830.922219) can0 230#070047
(1535283830.924916) can0 218#0000000000000000
(1535283830.925140) can0 312#07D1000009D007D0
(1535283830.928521) can0 423#01200000000000
(1535283830.930386) can0 0C2#D700000001000028
(1535283830.930973) can0 412#3600009F5B8A2011
(1535283830.931629) can0 2D5#02004E1103D20000
(1535283830.931874) can0 212#0000025827D0B0B2
(1535283830.932247) can0 230#07108A
(1535283830.934215) can0 3D5#0BE7008B200A1000
(1535283830.934949) can0 210#0000004100000000
(1535283830.935167) can0 1E1#8101300500000000
(1535283830.935445) can0 218#0000000000000000
(1535283830.935667) can0 312#07D1000009D007D0
(1535283830.935916) can0 308#0000000020FF03FF
(1535283830.936167) can0 3D7#048B091004F023E8
(1535283830.936414) can0 418#52FE0000BB000000
(1535283830.936666) can0 119#00000000000305B7
(1535283830.936885) can0 328#0000830000A52E37
(1535283830.937161) can0 300#000D00FF0000506D
(1535283830.937380) can0 270#FC0479867F840385
(1535283830.937626) can0 208#002041B700000000
(1535283830.937879) can0 200#0055000000000000
(1535283830.939048) can0 149#2B800000C5800579
(1535283830.939927) can0 151#FFFF100059800543
(1535283830.940383) can0 0C2#D700000001100018
(1535283830.940863) can0 156#0000000004032536
(1535283830.941069) can0 408#FF30830083095502
(1535283830.941242) can0 236#00
(1535283830.941800) can0 212#0000025827D0C0EB
(1535283830.942250) can0 230#0720C0
(1535283830.944905) can0 218#0000000000000000
(1535283830.945142) can0 312#07D1000009D007D0
(1535283830.948781) can0 423#01200000000000
(1535283830.950409) can0 0C2#D700000001200008
(1535283830.951807) can0 212#0000025827D0D026
(1535283830.952248) can0 230#07300D
(1535283830.954201) can0 3D5#0BE7008B200A1000
(1535283830.954911) can0 1E1#8101300500000000
(1535283830.955159) can0 210#0000004100000000
(1535283830.955410) can0 312#07D1000009D007D0
(1535283830.955657) can0 218#0000000000000000
(1535283830.955910) can0 308#0000000020FF03FF
(1535283830.956159) can0 3D7#048B091004F023E8
(1535283830.956381) can0 418#52FE0000BB000000
(1535283830.956620) can0 119#0000000000030690
(1535283830.956875) can0 328#0000830000A62E37
(1535283830.957136) can0 300#008D00FF8000606D
(1535283830.957364) can0 270#FC0479867F840385
(1535283830.957605) can0 208#002041B400000000
(1535283830.957842) can0 200#0059000000000000
(1535283830.959052) can0 149#2B800000C580065E
(1535283830.959941) can0 151#FFFF10005B800667
(1535283830.960402) can0 0C2#D7000000013000F8
(1535283830.960863) can0 156#00000000063326D3
(1535283830.960941) can0 236#00
(1535283830.961805) can0 212#0000025827D0E06C
(1535283830.962275) can0 230#074054
(1535283830.964884) can0 218#0000000000000000
(1535283830.965146) can0 312#07D1000009D007D0
(1535283830.968570) can0 423#01200000000000
(1535283830.970399) can0 0C2#D7000000014000E8
(1535283830.971802) can0 212#0000025827D0F0A1
(1535283830.972273) can0 230#075099
(1535283830.974610) can0 3D5#0BE7008B200A1000
(1535283830.974955) can0 210#0000004100000000
(1535283830.975213) can0 1E1#8101300500000000
(1535283830.975437) can0 218#0000000000000000
(1535283830.975688) can0 312#07D1000009D007D0
(1535283830.975937) can0 308#0000000020FF03FF
(1535283830.976189) can0 3D7#048B091004F023E8
(1535283830.976437) can0 418#52FE0000BB000000
(1535283830.976659) can0 119#000000000003078D
(1535283830.976908) can0 328#0000830000A72E37
(1535283830.977163) can0 300#008D00FF8000706D
(1535283830.977375) can0 270#FC0479867F840385
(1535283830.977625) can0 208#002041B700000000
(1535283830.977868) can0 200#001D000000000000
(1535283830.979060) can0 149#1F800000C8800779
(1535283830.979937) can0 151#FFFF1000608007D2
(1535283830.980415) can0 0C2#D7000000015000D8
(1535283830.980832) can0 156#000000000822273F
(1535283830.980928) can0 236#00
(1535283830.981798) can0 212#0000025827D000DE
(1535283830.982301) can0 230#0760D3
(1535283830.984888) can0 218#0000000000000000
(1535283830.985137) can0 312#07D1000009D007D0
(1535283830.988774) can0 423#01200000000000
(1535283830.990459) can0 0C2#D7000000016000C8
(1535283830.991794) can0 212#0000025827D01013
(1535283830.992279) can0 230#07701E
(1535283830.994316) can0 3D5#0BE7008B200A1000
(1535283830.994911) can0 0E0#0087000000000000
(1535283830.995159) can0 1E1#8101300500000000
(1535283830.995410) can0 168#000000C151000060
(1535283830.995628) can0 312#07D1000009D007D0
(1535283830.995911) can0 210#0000004100000000
(1535283830.996158) can0 218#0000000000000000
(1535283830.996410) can0 119#0000000000030836
(1535283830.996638) can0 308#0000000020FF03FF
(1535283830.996883) can0 328#0000830000A02E37
(1535283830.997160) can0 300#000D00FF0000806D
(1535283830.997377) can0 270#FC0479867F840385
(1535283830.997623) can0 208#002041B700000000
(1535283830.997856) can0 200#0021000000000000
(1535283830.998139) can0 318#58090007FF630058
(1535283830.998365) can0 338#2070C20000000000
(1535283830.998608) can0 358#0974209680960974
(1535283830.998815) can0 3D7#048B091004F023E8
(1535283830.999069) can0 149#22800000CA8008F1
(1535283830.999317) can0 418#52FE0000BB000000
(1535283830.999565) can0 448#0F00000000000F1B
(1535283830.999789) can0 508#08001FF68BFC063F
(1535283831.000038) can0 151#FFFF10006280086A
(1535283831.000125) can0 2F1#00
(1535283831.000406) can0 518#32000000FF7FC8C8
(1535283831.000627) can0 0C2#D7000000017000B8
(1535283831.000873) can0 156#000000000A212853
(1535283831.000965) can0 236#00
(1535283831.001245) can0 608#4100418700000000
(1535283831.001792) can0 212#0000025827D02059
(1535283831.002280) can0 230#078061
(1535283831.004893) can0 218#0000000000000000
(1535283831.005137) can0 312#07D1000009D007D0
(1535283831.008851) can0 423#01200000000000
(1535283831.010280) can0 452#0000000000000000
(1535283831.010499) can0 0C2#D7000000018000A8
(1535283831.011056) can0 512#041E1FFF00FF0000
(1535283831.011816) can0 212#0000025827D03094
(1535283831.012281) can0 230#0790AC
(1535283831.014194) can0 3D5#0BE7008B200A1000
(1535283831.014914) can0 1E1#8101300500000000
(1535283831.015167) can0 210#0000004100000000
(1535283831.015419) can0 312#07D1000009D007D0
(1535283831.015668) can0 218#0000000000000000
(1535283831.015916) can0 308#0000000020FF03FF
(1535283831.016142) can0 3D7#048B091004F023E8
(1535283831.016418) can0 418#52FE0000BB000000
(1535283831.016635) can0 119#000000000003092B
(1535283831.016883) can0 328#0000830000A12E37
(1535283831.017163) can0 300#000D00FF0000906D
(1535283831.017354) can0 270#FC0479867F840385
(1535283831.017594) can0 208#002041B700000000
(1535283831.017844) can0 200#0065000000000000
(1535283831.019037) can0 149#2D800000D88009AB
(1535283831.019928) can0 151#FFFF100062800977
(1535283831.020245) can0 443#8000000000000200
(1535283831.020479) can0 0C2#D700000001900098
(1535283831.020840) can0 156#000000000C252966
(1535283831.021140) can0 504#0000000004E30000
(1535283831.021261) can0 236#00
(1535283831.021800) can0 212#0000025827D040CD
(1535283831.022277) can0 230#07A0E6
(1535283831.024884) can0 218#0000000000000000
(1535283831.025142) can0 312#07D1000009D007D0
(1535283831.028693) can0 423#01200000000000
(1535283831.030517) can0 0C2#D700000001A00088
(1535283831.031161) can0 412#3600009F5B892011
(1535283831.031816) can0 212#0000025827D05000
(1535283831.032301) can0 230#07B02B
(1535283831.034260) can0 3D5#0BE7008B200A1000
(1535283831.034961) can0 1E1#8101300500000000
(1535283831.035193) can0 210#0000004100000000
(1535283831.035417) can0 312#07D1000009D007D0
(1535283831.035674) can0 218#0000000000000000
(1535283831.035915) can0 308#0000000020FF03FF
(1535283831.036181) can0 3D7#048B091004F023E8
(1535283831.036445) can0 418#52FE0000BB000000
(1535283831.036680) can0 119#0000000000030A0C
(1535283831.036937) can0 328#0000830000A22E37
(1535283831.037226) can0 300#008D00FF8000A06D
(1535283831.037400) can0 270#FC0479867F840385
(1535283831.037657) can0 208#002041B700000000
(1535283831.037905) can0 200#0069000000000000
(1535283831.039078) can0 149#26800000E9800A1E
(1535283831.039959) can0 151#FFFF10004D800AE6
(1535283831.040538) can0 0C2#D700000001B00078
(1535283831.040860) can0 156#000000000E292A35
(1535283831.041196) can0 408#FF30830083095502
(1535283831.041375) can0 236#00
(1535283831.041801) can0 212#0000025827D0604A
(1535283831.042297) can0 230#07C072
(1535283831.044961) can0 218#0000000000000000
(1535283831.045154) can0 312#07D1000009D007D0
(1535283831.048993) can0 423#01200000000000
(1535283831.050525) can0 0C2#D700000001C00068
(1535283831.051808) can0 212#0000025827D07087
(1535283831.052311) can0 230#07D0BF
(1535283831.054356) can0 3D5#0BE7008B200A1000
(1535283831.054952) can0 210#0000004100000000
(1535283831.055199) can0 1E1#8101300500000000
(1535283831.055449) can0 218#0000000000000000
(1535283831.055677) can0 312#07D1000009D007D0
(1535283831.055925) can0 308#0000000020FF03FF
(1535283831.056173) can0 3D7#048B091004F023E8
(1535283831.056391) can0 119#0000000000030B11
(1535283831.056639) can0 328#0000830000A32E37
(1535283831.056883) can0 300#008D00FF8000B06D
(1535283831.057249) can0 270#FC0479867E840385
(1535283831.057370) can0 208#002041B700000000
(1535283831.057634) can0 200#002D000000000000
(1535283831.057870) can0 418#52FE0000BB000000
(1535283831.059077) can0 149#22800000ED800B6C
(1535283831.059925) can0 151#FFFF10004D800BFB
(1535283831.060545) can0 0C2#D700000001D00058
(1535283831.060854) can0 156#0000000010232BFB
(1535283831.061155) can0 236#00
(1535283831.061834) can0 212#0000025827D080F8
(1535283831.062350) can0 230#07E0F5
(1535283831.064901) can0 218#0000000000000000
(1535283831.065158) can0 312#07D1000009D007D0
(1535283831.068789) can0 423#01200000000000
(1535283831.070559) can0 0C2#D700000001E00048
(1535283831.071836) can0 212#0000025827D09035
(1535283831.072347) can0 230#07F038
(1535283831.074540) can0 3D5#0BE7008B200A1000
(1535283831.074953) can0 210#0000004100000000
(1535283831.075213) can0 1E1#8101300500000000
(1535283831.075463) can0 218#0000000000000000
(1535283831.075686) can0 312#07D1000009D007D0
(1535283831.075933) can0 308#0000000020FF03FF
(1535283831.076183) can0 3D7#048B091004F023E8
(1535283831.076434) can0 418#52FE0000BB000000
(1535283831.076683) can0 119#0000000000030C42
(1535283831.076903) can0 328#0000830000A42E37
(1535283831.077174) can0 300#000D00FF0000C06D
(1535283831.077389) can0 270#FC0479867E840385
(1535283831.077629) can0 208#002041B700000000
(1535283831.077895) can0 200#0071000000000000
(1535283831.079079) can0 149#26800000DD800C7E
(1535283831.079970) can0 151#FFFF100057800CBF
(1535283831.080592) can0 0C2#D700000001F00038
(1535283831.080882) can0 156#0000000012332C1F
(1535283831.081191) can0 236#00
(1535283831.081844) can0 212#0000025827D0A07F
(1535283831.082363) can0 230#070047
(1535283831.084920) can0 218#0000000000000000
(1535283831.085168) can0 312#07D1000009D007D0
(1535283831.089019) can0 423#01200000000000
(1535283831.090605) can0 0C2#D700000001000028
(1535283831.091836) can0 212#0000025827D0B0B2
(1535283831.092308) can0 230#07108A
(1535283831.094318) can0 3D5#0BE7008B200A1000
(1535283831.094906) can0 0E0#0087000000000000
(1535283831.095192) can0 1E1#8101300500000000
(1535283831.095411) can0 168#000000C151000060
(1535283831.095657) can0 312#07D1000009D007D0
(1535283831.095901) can0 210#0000004100000000
(1535283831.096188) can0 218#0000000000000000
(1535283831.096406) can0 308#0000000020FF03FF
(1535283831.096652) can0 119#0000000000030D5F
(1535283831.096884) can0 318#58090007FF630058
(1535283831.097197) can0 328#0000830000A52E37
(1535283831.097383) can0 300#000D00FF0000D06D
(1535283831.097596) can0 270#FC0479867F840385
(1535283831.097845) can0 208#002041B700000000
(1535283831.098097) can0 200#0035000000000000
(1535283831.098359) can0 338#2070C10000000000
(1535283831.098592) can0 358#0974209680960974
(1535283831.098815) can0 3D7#048B091004F023E8
(1535283831.099063) can0 418#52FE0000BB000000
(1535283831.099315) can0 149#26800000D3800D6A
(1535283831.099563) can0 448#0F00000000000F1B
(1535283831.099792) can0 508#08001FF68BFC063F
(1535283831.100068) can0 518#33000000FF7FC8C8
(1535283831.100312) can0 608#4100418700000000
(1535283831.100621) can0 0C2#D700000001100018
(1535283831.100929) can0 151#FFFF10005B800DA8
(1535283831.101164) can0 236#00
(1535283831.101815) can0 212#0000025827D0C0EB
(1535283831.102065) can0 156#0000000014202D67
(1535283831.102332) can0 230#0720C0
(1535283831.102430) can0 2F1#00
(1535283831.104907) can0 218#0000000000000000
(1535283831.105170) can0 312#07D1000009D007D0
(1535283831.108946) can0 423#01200000000000
(1535283831.110314) can0 452#0000000000000000
(1535283831.110617) can0 0C2#D700000001200008
(1535283831.111191) can0 512#041E1FFF00FF0000
(1535283831.111826) can0 212#0000025827D0D026
(1535283831.112419) can0 230#07300D
(1535283831.114224) can0 3D5#0BE7008B200A1000
(1535283831.114966) can0 210#0000004100000000
(1535283831.115185) can0 1E1#8101300500000000
(1535283831.115436) can0 218#0000000000000000
(1535283831.115687) can0 312#07D1000009D007D0
(1535283831.115933) can0 308#0000000020FF03FF
(1535283831.116184) can0 3D7#048B091004F023E8
(1535283831.116403) can0 119#0000000000030E78
(1535283831.116648) can0 328#0000830000A62E37
(1535283831.116899) can0 300#008D00FF8000E06D
(1535283831.117185) can0 270#FC0479867F840385
(1535283831.117379) can0 208#002041B700000000
(1535283831.117630) can0 200#0039000000000000
(1535283831.117882) can0 418#52FE0000BB000000
(1535283831.119069) can0 149#26800000CF800E5F
(1535283831.119956) can0 151#FFFF10005B800E8F
(1535283831.120272) can0 443#8000000000000200
(1535283831.120641) can0 0C2#D7000000013000F8
(1535283831.120895) can0 156#0000000016212E0F
(1535283831.121272) can0 504#0000000004E30000
(1535283831.121429) can0 236#00
(1535283831.121826) can0 212#0000025827D0E06C
(1535283831.122414) can0 230#074054
(1535283831.124896) can0 218#0000000000000000
(1535283831.125164) can0 312#07D1000009D007D0
(1535283831.128828) can0 423#01200000000000
(1535283831.130656) can0 0C2#D7000000014000E8
(1535283831.131190) can0 412#3600009F5B8A2011
(1535283831.131644) can0 2D5#02004E1103D20000
(1535283831.131895) can0 212#0000025827D0F0A1
(1535283831.132391) can0 230#075099
(1535283831.134186) can0 3D5#0BE7008B200A1000
(1535283831.134943) can0 210#0000004100000000
(1535283831.135185) can0 1E1#8101300500000000
(1535283831.135446) can0 218#0000000000000000
(1535283831.135690) can0 312#07D1000009D007D0
(1535283831.135939) can0 308#0000000020FF03FF
(1535283831.136164) can0 3D7#048B091004F023E8
(1535283831.136408) can0 418#52FE0000BB000000
(1535283831.136657) can0 119#0000000000030F65
(1535283831.136899) can0 328#0000830000A72E37
(1535283831.137163) can0 300#008D00FF8000F06D
(1535283831.137391) can0 270#FC0479867F840385
(1535283831.137630) can0 208#002041B700000000
(1535283831.137880) can0 200#007D000000000000
(1535283831.139079) can0 149#24800000C5800FF7
(1535283831.139967) can0 151#FFFF100069800FB9
(1535283831.140676) can0 0C2#D7000000015000D8
(1535283831.140902) can0 156#0000000018262FE2
(1535283831.141318) can0 408#FF30830083095502
(1535283831.141459) can0 236#00
(1535283831.141830) can0 212#0000025827D000DE
(1535283831.142358) can0 230#0760D3
(1535283831.144904) can0 218#0000000000000000
(1535283831.145163) can0 312#07D1000009D007D0
(1535283831.149027) can0 423#01200000000000
(1535283831.150690) can0 0C2#D7000000016000C8
(1535283831.151818) can0 212#0000025827D01013
(1535283831.152416) can0 230#07701E
(1535283831.154313) can0 3D5#0BE7008B200A1000
(1535283831.154936) can0 210#0000004100000000
(1535283831.155184) can0 1E1#8101300500000000
(1535283831.155438) can0 218#0000000000000000
(1535283831.155691) can0 312#07D1000009D007D0
(1535283831.155940) can0 308#0000000020FF03FF
(1535283831.156163) can0 3D7#048B091004F023E8
(1535283831.156408) can0 119#00000000000300DE
(1535283831.156652) can0 328#0000830000A02E37
(1535283831.156898) can0 300#000D00FF0000006D
(1535283831.157186) can0 270#FC04798680840385
(1535283831.157379) can0 208#002041B700000000
(1535283831.157630) can0 200#0041000000000000
(1535283831.157879) can0 418#52FE0000BB000000
(1535283831.159078) can0 149#24800000D1800052
(1535283831.159942) can0 151#FFFF100071800016
(1535283831.160686) can0 0C2#D7000000017000B8
(1535283831.160936) can0 156#000000001A00209A
(1535283831.161174) can0 236#00
(1535283831.161840) can0 212#0000025827D02059
(1535283831.162413) can0 230#078061
(1535283831.164897) can0 218#0000000000000000
(1535283831.165163) can0 312#07D1000009D007D0
(1535283831.168879) can0 423#01200000000000
(1535283831.170724) can0 0C2#D7000000018000A8
(1535283831.171836) can0 212#0000025827D03094
(1535283831.172366) can0 230#0790AC
(1535283831.174602) can0 3D5#0BE7008B200A1000
(1535283831.174968) can0 210#0000004100000000
(1535283831.175224) can0 1E1#8101300500000000
(1535283831.175474) can0 218#0000000000000000
(1535283831.175692) can0 312#07D1000009D007D0
(1535283831.175940) can0 308#0000000020FF03FF
(1535283831.176195) can0 3D7#048B091004F023E8
(1535283831.176445) can0 119#000000000004013A
(1535283831.176659) can0 328#0000830000A12E37
(1535283831.176908) can0 300#000D00FF0000106D
(1535283831.177169) can0 270#FC04798680840385
(1535283831.177410) can0 208#002041B700000000
(1535283831.177660) can0 200#0005000000000000
(1535283831.177903) can0 418#52FE0000BB000000
(1535283831.179094) can0 149#2B800000DA800193
(1535283831.179943) can0 151#FFFF10006280019F
(1535283831.180740) can0 0C2#D700000001900098
(1535283831.180968) can0 156#00000000022021E6
(1535283831.181208) can0 236#00
(1535283831.181845) can0 212#0000025827D040CD
(1535283831.182419) can0 230#07A0E6
(1535283831.184899) can0 218#0000000000000000
(1535283831.185168) can0 312#07D1000009D007D0
(1535283831.189066) can0 423#01200000000000
(1535283831.190752) can0 0C2#D700000001A00088
(1535283831.191846) can0 212#0000025827D05000
(1535283831.192411) can0 230#07B02B
(1535283831.194228) can0 3D5#0BE7008B200A1000
(1535283831.194906) can0 0E0#0087000000000000
(1535283831.195166) can0 1E1#8101300500000000
(1535283831.195414) can0 168#000000C151000060
(1535283831.195660) can0 312#07D1000009D007D0
(1535283831.195900) can0 210#0000004100000000
(1535283831.196168) can0 218#0000000000000000
(1535283831.196415) can0 308#0000000020FF03FF
(1535283831.196659) can0 119#000000000004021D
(1535283831.196883) can0 318#58090007FF630058
(1535283831.197167) can0 328#0000830000A22E37
(1535283831.197357) can0 300#008D00FF8000206D
(1535283831.197600) can0 270#FC0479867F840385
(1535283831.197845) can0 208#002041B700000000
(1535283831.198096) can0 200#0009000000000000
(1535283831.198331) can0 338#2070C10000000000
(1535283831.198596) can0 358#0974209680960974
(1535283831.198843) can0 3D7#048B091004F023E8
(1535283831.199097) can0 149#29800000DA80020E
(1535283831.199332) can0 418#52FE0000BB000000
(1535283831.199566) can0 448#0F00000000000F1B
(1535283831.199815) can0 508#08001FF68BFC063F
(1535283831.200063) can0 151#FFFF100057800219
(1535283831.200315) can0 518#34000000FF7FC8C8
(1535283831.200565) can0 608#4100418700000000
(1535283831.200815) can0 0C2#D700000001B00078
(1535283831.201031) can0 156#00000000042022C4
(1535283831.201167) can0 236#00
(1535283831.201843) can0 212#0000025827D0604A
(1535283831.202418) can0 230#07C072
(1535283831.204510) can0 2F1#00
(1535283831.204924) can0 218#0000000000000000
(1535283831.205169) can0 312#07D1000009D007D0
(1535283831.209139) can0 423#01200000000000
(1535283831.210316) can0 452#0000000000000000
(1535283831.210766) can0 0C2#D700000001C00068
(1535283831.211222) can0 512#041E1FFF00FF0000
(1535283831.211854) can0 212#0000025827D07087
(1535283831.212450) can0 230#07D0BF
(1535283831.214168) can0 3D5#0BE7008B200A1000
(1535283831.214964) can0 210#0000004100000000
(1535283831.215216) can0 1E1#8101300500000000
(1535283831.215445) can0 218#0000000000000000
(1535283831.215691) can0 312#07D1000009D007D0
(1535283831.215940) can0 308#0000000020FF03FF
(1535283831.216190) can0 3D7#048B091004F023E8
(1535283831.216406) can0 119#0000000000040300
(1535283831.216655) can0 328#0000830000A32E37
(1535283831.216899) can0 300#008D00FF8000306D
(1535283831.217164) can0 270#FC0479867F840385
(1535283831.217394) can0 208#002041B400000000
(1535283831.217631) can0 200#004D000000000000
(1535283831.217882) can0 418#52FE0000BB000000
(1535283831.219078) can0 149#22800000E4800307
(1535283831.219968) can0 151#FFFF100057800304
(1535283831.220273) can0 443#8000000000000200
(1535283831.220791) can0 0C2#D700000001D00058
(1535283831.221017) can0 156#0000000006212396
(1535283831.221256) can0 504#0000000004E30000
(1535283831.221429) can0 236#00
(1535283831.221857) can0 212#0000025827D080F8
(1535283831.222419) can0 230#07E0F5
(1535283831.224918) can0 218#0000000000000000
(1535283831.225165) can0 312#07D1000009D007D0
(1535283831.229007) can0 423#01200000000000
(1535283831.230804) can0 0C2#D700000001E00048
(1535283831.231258) can0 412#3600009F5B892011
(1535283831.231817) can0 212#0000025827D09035
(1535283831.232507) can0 230#07F038
(1535283831.234166) can0 3D5#0BE7008B200A1000
(1535283831.234964) can0 210#0000004100000000
(1535283831.235187) can0 1E1#8101300500000000
(1535283831.235436) can0 218#0000000000000000
(1535283831.235686) can0 312#07D1000009D007D0
(1535283831.235936) can0 308#0000000020FF03FF
(1535283831.236187) can0 3D7#048B091004F023E8
(1535283831.236437) can0 119#0000000000040453
(1535283831.236653) can0 328#0000830000A42E37
(1535283831.236902) can0 300#000D00FF0000406D
(1535283831.237188) can0 270#FC0479867F840385
(1535283831.237382) can0 208#002041B700000000
(1535283831.237648) can0 200#0011000000000000
(1535283831.237883) can0 418#52FE0000BB000000
(1535283831.239067) can0 149#22800000E2800451
(1535283831.239967) can0 151#FFFF100057800457
(1535283831.240819) can0 0C2#D700000001F00038
(1535283831.241033) can0 156#00000000080024F5
(1535283831.241280) can0 408#FF30830083095502
(1535283831.241457) can0 236#00
(1535283831.241857) can0 212#0000025827D0A07F
(1535283831.242416) can0 230#070047
(1535283831.244918) can0 218#0000000000000000
(1535283831.245174) can0 312#07D1000009D007D0
(1535283831.249172) can0 423#01200000000000
(1535283831.250830) can0 0C2#D700000001000028
(1535283831.251832) can0 212#0000025827D0B0B2
(1535283831.252421) can0 230#07108A
(1535283831.254344) can0 3D5#0BE7008B200A1000
(1535283831.254966) can0 210#0000004100000000
(1535283831.255192) can0 1E1#8101300500000000
(1535283831.255441) can0 218#0000000000000000
(1535283831.255689) can0 312#07D1000009D007D0
(1535283831.255941) can0 308#0000000020FF03FF
(1535283831.256191) can0 3D7#048B091004F023E8
(1535283831.256407) can0 119#0000000000050502
(1535283831.256654) can0 328#0000830000A52E37
(1535283831.256900) can0 300#000D00FF0000506D
(1535283831.257165) can0 270#FC0479867F840385
(1535283831.257393) can0 208#002041B400000000
(1535283831.257631) can0 200#0055000000000000
(1535283831.257880) can0 418#52FE0000BB000000
(1535283831.259081) can0 149#24800000E280059F
(1535283831.259939) can0 151#FFFF10005E8005C9
(1535283831.260848) can0 0C2#D700000001100018
(1535283831.261062) can0 156#00000000022525F3
(1535283831.261204) can0 236#00
(1535283831.261813) can0 212#0000025827D0C0EB
(1535283831.262504) can0 230#0720C0
(1535283831.264919) can0 218#0000000000000000
(1535283831.265166) can0 312#07D1000009D007D0
(1535283831.269077) can0 423#01200000000000
(1535283831.270863) can0 0C2#D700000001200008
(1535283831.271846) can0 212#0000025827D0D026
(1535283831.272527) can0 230#07300D
(1535283831.274547) can0 3D5#0BE7008B200A1000
(1535283831.274958) can0 210#0000004100000000
(1535283831.275217) can0 1E1#8101300500000000
(1535283831.275470) can0 218#0000000000000000
(1535283831.275691) can0 312#07D1000009D007D0
(1535283831.275941) can0 308#0000000020FF03FF
(1535283831.276190) can0 3D7#048B091004F023E8
(1535283831.276442) can0 119#0000000000050625
(1535283831.276695) can0 328#0000830000A62E37
(1535283831.276911) can0 300#008D00FF8000606D
(1535283831.277174) can0 270#FC0479867F840385
(1535283831.277395) can0 208#002041B400000000
(1535283831.277656) can0 200#0059000000000000
(1535283831.277900) can0 418#52FE0000BB000000
(1535283831.279083) can0 149#24800000D7800619
(1535283831.279940) can0 151#FFFF100067800645
(1535283831.280891) can0 0C2#D7000000013000F8
(1535283831.281148) can0 156#00000000042926A6
(1535283831.281209) can0 236#00
(1535283831.281849) can0 212#0000025827D0E06C
(1535283831.282509) can0 230#074054
(1535283831.284917) can0 218#0000000000000000
(1535283831.285170) can0 312#07D1000009D007D0
(1535283831.289237) can0 423#01200000000000
(1535283831.290862) can0 0C2#D7000000014000E8
(1535283831.291833) can0 212#0000025827D0F0A1
(1535283831.292449) can0 230#075099
(1535283831.294168) can0 3D5#0BE7008B200A1000
(1535283831.294935) can0 0E0#0087000000000000
(1535283831.295183) can0 1E1#8101300500000000
(1535283831.295415) can0 168#000000C151000060
(1535283831.295656) can0 312#07D1000009D007D0
(1535283831.295904) can0 210#0000004100000000
(1535283831.296184) can0 218#0000000000000000
(1535283831.296404) can0 119#0000000000050738
(1535283831.296646) can0 308#0000000020FF03FF
(1535283831.296909) can0 328#0000830000A72E37
(1535283831.297166) can0 300#008D00FF8000706D
(1535283831.297392) can0 270#FC0479867F840385
(1535283831.297625) can0 208#002041B700000000
(1535283831.297875) can0 200#001D000000000000
(1535283831.298181) can0 318#58090007FF630058
(1535283831.298376) can0 338#2070C10000000000
(1535283831.298625) can0 358#0974209680960974
(1535283831.298839) can0 3D7#048B091004F023E8
(1535283831.299087) can0 149#24800000D8800782
(1535283831.299322) can0 418#52FE0000BB000000
(1535283831.299572) can0 448#0F00000000000F1B
(1535283831.299823) can0 508#08001FF68BFC063F
(1535283831.300057) can0 151#FFFF1000648007D4
(1535283831.300307) can0 518#35000000FF7FC8C8
(1535283831.300556) can0 608#4100418700000000
(1535283831.300861) can0 156#000000000626271B
(1535283831.301163) can0 0C2#D7000000015000D8
(1535283831.301228) can0 236#00
(1535283831.301828) can0 212#0000025827D000DE
(1535283831.302442) can0 230#0760D3
(1535283831.304912) can0 218#0000000000000000
(1535283831.305162) can0 312#07D1000009D007D0
(1535283831.307158) can0 2F1#00
(1535283831.309305) can0 423#01200000000000
(1535283831.310339) can0 452#0000000000000000
(1535283831.310926) can0 0C2#D7000000016000C8
(1535283831.311356) can0 512#041E1FFF00FF0000
(1535283831.311858) can0 212#0000025827D01013
(1535283831.312510) can0 230#07701E
(1535283831.314227) can0 3D5#0BE7008B200A1000
(1535283831.314995) can0 210#0000004100000000
(1535283831.315239) can0 1E1#8101300500000000
(1535283831.315489) can0 218#0000000000000000
(1535283831.315715) can0 312#07D1000009D007D0
(1535283831.315962) can0 308#0000000020FF03FF
(1535283831.316214) can0 3D7#048B091004F023E8
(1535283831.316458) can0 119#0000000000050883
(1535283831.316678) can0 328#0000830000A02E37
(1535283831.316928) can0 300#000D00FF0000806D
(1535283831.317217) can0 270#FC0479867F840385
(1535283831.317412) can0 208#002041B700000000
(1535283831.317657) can0 200#0021000000000000
(1535283831.317887) can0 418#52FE0000BB000000
(1535283831.319077) can0 149#22800000D580086F
(1535283831.319953) can0 151#FFFF100060800869
(1535283831.320285) can0 443#8000000000000200
(1535283831.320886) can0 156#00000000082328C8
(1535283831.321174) can0 0C2#D7000000017000B8
(1535283831.321381) can0 504#0000000004E30000
(1535283831.321512) can0 236#00
(1535283831.321856) can0 212#0000025827D02059
(1535283831.322514) can0 230#078061
(1535283831.324914) can0 218#0000000000000000
(1535283831.325166) can0 312#07D1000009D007D0
(1535283831.329194) can0 423#01200000000000
(1535283831.330952) can0 0C2#D7000000018000A8
(1535283831.331373) can0 412#3600009F5B892011
(1535283831.331643) can0 2D5#02004E1103D20000
(1535283831.331882) can0 212#0000025827D03094
(1535283831.332544) can0 230#0790AC
(1535283831.334345) can0 3D5#0BE7008B200A1000
(1535283831.334954) can0 210#0000004100000000
(1535283831.335195) can0 1E1#8101300500000000
(1535283831.335439) can0 218#0000000000000000
(1535283831.335695) can0 312#07D1000009D007D0
(1535283831.335931) can0 308#0000000020FF03FF
(1535283831.336265) can0 3D7#048B091004F023E8
(1535283831.336403) can0 119#000000000005099E
(1535283831.336646) can0 328#0000830000A12E37
(1535283831.336891) can0 300#000D00FF0000906D
(1535283831.337304) can0 270#FC0479867F840385
(1535283831.337373) can0 208#002041B400000000
(1535283831.337618) can0 200#0065000000000000
(1535283831.337870) can0 418#52FE0000BB000000
(1535283831.339111) can0 149#29800000D5800947
(1535283831.339952) can0 151#FFFF100058800950
(1535283831.340901) can0 156#000000000A002977
(1535283831.341163) can0 0C2#D700000001900098
(1535283831.341487) can0 408#FF30830083095502
(1535283831.341633) can0 236#00
(1535283831.341910) can0 212#0000025827D040CD
(1535283831.342545) can0 230#07A0E6
(1535283831.344957) can0 218#0000000000000000
(1535283831.345291) can0 312#07D1000009D007D0
(1535283831.349341) can0 423#01200000000000
(1535283831.350952) can0 0C2#D700000001A00088
(1535283831.351467) can0 305#100040
(1535283831.351856) can0 212#0000025827D05000
(1535283831.352593) can0 230#07B02B
(1535283831.354293) can0 3D5#0BE7008B200A0F00
(1535283831.355143) can0 210#0000004100000000
(1535283831.355220) can0 1E1#8101300500000000
(1535283831.355452) can0 218#0000000000000000
(1535283831.355691) can0 312#07D1000009D007D0
(1535283831.355922) can0 308#0000000020FF03FF
(1535283831.356229) can0 3D7#048B091004F023E8
(1535283831.356430) can0 418#52FE0000BB000000
(1535283831.356665) can0 119#0000000000060A6D
(1535283831.356930) can0 328#0000830000A22E37
(1535283831.357281) can0 300#008D00FF8000A06D
(1535283831.357399) can0 270#FC0479867F840385
(1535283831.357633) can0 208#002041B400000000
(1535283831.357901) can0 200#0069000000000000
(1535283831.359090) can0 149#2B800000D8800A5F
(1535283831.359949) can0 151#FFFF10005B800AFB
(1535283831.360896) can0 156#0000000002212A65
(1535283831.361174) can0 0C2#D700000001B00078
(1535283831.361366) can0 236#00
(1535283831.361817) can0 212#0000025827D0604A
(1535283831.362514) can0 230#07C072
(1535283831.364967) can0 218#0000000000000000
(1535283831.365225) can0 312#07D1000009D007D0
(1535283831.369299) can0 423#01200000000000
(1535283831.370974) can0 0C2#D700000001C00068
(1535283831.371834) can0 212#0000025827D07087
(1535283831.372541) can0 230#07D0BF
(1535283831.374451) can0 3D5#0BE7008B200A1000
(1535283831.374977) can0 210#0000004100000000
(1535283831.375226) can0 1E1#8101300500000000
(1535283831.375481) can0 218#0000000000000000
(1535283831.375712) can0 312#07D1000009D007D0
(1535283831.375978) can0 308#0000000020FF03FF
(1535283831.376215) can0 3D7#048B091004F023E8
(1535283831.376442) can0 418#52FE0000BB000000
(1535283831.376688) can0 119#0000000000060B70
(1535283831.376952) can0 328#0000830000A32E37
(1535283831.377306) can0 300#008D00FF8000B06D
(1535283831.377439) can0 270#FC0479867F840385
(1535283831.377663) can0 208#002041B400000000
(1535283831.377933) can0 200#002D000000000000
(1535283831.379120) can0 149#21800000D5800BAF
(1535283831.380059) can0 151#FFFF100066800B4B
(1535283831.381071) can0 156#0000000004242B1C
(1535283831.381304) can0 0C2#D700000001D00058
(1535283831.381479) can0 236#00
(1535283831.381869) can0 212#0000025827D080F8
(1535283831.382537) can0 230#07E0F5
(1535283831.384936) can0 218#0000000000000000
(1535283831.385202) can0 312#07D1000009D007D0
(1535283831.389409) can0 423#01200000000000
(1535283831.391030) can0 0C2#D700000001E00048
(1535283831.391828) can0 212#0000025827D09035
(1535283831.392540) can0 230#07F038
(1535283831.394227) can0 3D5#0BE7008B200A1000
(1535283831.394937) can0 0E0#0087000000000000
(1535283831.395182) can0 1E1#8101300500000000
(1535283831.395425) can0 168#000000C151000060
(1535283831.395680) can0 312#07D1000009D007D0
(1535283831.395913) can0 210#0000004100000000
(1535283831.396208) can0 218#0000000000000000
(1535283831.396435) can0 308#0000000020FF03FF
(1535283831.396672) can0 119#0000000000060C23
(1535283831.396933) can0 318#58090007FF630058
(1535283831.397188) can0 328#0000830000A42E37
(1535283831.397399) can0 300#000D00FF0000C06D
(1535283831.397648) can0 270#FC0479867F840385
(1535283831.397863) can0 208#002041B700000000
(1535283831.398193) can0 200#0071000000000000
(1535283831.398356) can0 338#2070C20000000000
(1535283831.398595) can0 358#0974209680960974
(1535283831.398821) can0 3D7#048B091004F023E8
(1535283831.399082) can0 149#1F800000D8800CAE
(1535283831.399333) can0 418#52FE0000BB000000
(1535283831.399572) can0 448#0F00000000000F1B
(1535283831.399831) can0 508#08001FF68BFC063F
(1535283831.400070) can0 151#FFFF100060800C1D
(1535283831.400317) can0 518#36000000FF7FC8C8
(1535283831.400575) can0 608#4100418700000000
(1535283831.400895) can0 156#0000000006322C4D
(1535283831.401298) can0 0C2#D700000001F00038
(1535283831.401418) can0 236#00
(1535283831.401849) can0 212#0000025827D0A07F
(1535283831.402534) can0 230#070047
(1535283831.404936) can0 218#0000000000000000
(1535283831.405189) can0 312#07D1000009D007D0
(1535283831.409354) can0 423#01200000000000
(1535283831.409457) can0 2F1#00
(1535283831.410318) can0 452#0000000000000000
(1535283831.411037) can0 0C2#D700000001000028
(1535283831.411441) can0 512#041E1FFF00FF0000
(1535283831.411864) can0 212#0000025827D0B0B2
(1535283831.412527) can0 230#07108A
(1535283831.414197) can0 3D5#0BE7008B20090F00
(1535283831.414942) can0 210#0000004100000000
(1535283831.415191) can0 1E1#8101300500000000
(1535283831.415439) can0 218#0000000000000000
(1535283831.415669) can0 312#07D1000009D007D0
(1535283831.415936) can0 308#0000000020FF03FF
(1535283831.416157) can0 3D7#048B091004F023E8
(1535283831.416419) can0 418#52FE0000BB000000
(1535283831.416657) can0 119#0000000000060D3E
(1535283831.416927) can0 328#0000830000A52E37
(1535283831.417330) can0 300#000D00FF0000D06D
(1535283831.417429) can0 270#FC0479867F840385
(1535283831.417654) can0 208#002041B700000000
(1535283831.417928) can0 200#0035000000000000
(1535283831.419154) can0 149#29800000D8800DB6
(1535283831.419974) can0 151#FFFF100052800D2B
(1535283831.420301) can0 443#8000000000000200
(1535283831.420921) can0 156#0000000008202D75
(1535283831.421300) can0 0C2#D700000001100018
(1535283831.421555) can0 504#0000000004E30000
(1535283831.421880) can0 212#0000025827D0C0EB
(1535283831.421961) can0 236#00
(1535283831.422546) can0 230#0720C0
(1535283831.424954) can0 218#0000000000000000
(1535283831.425246) can0 312#07D1000009D007D0
(1535283831.429287) can0 423#01200000000000
(1535283831.431083) can0 0C2#D700000001200008
(1535283831.431563) can0 412#3600009F5B892011
(1535283831.431854) can0 212#0000025827D0D026
(1535283831.432533) can0 230#07300D
(1535283831.434277) can0 3D5#0BE7008B200A1000
(1535283831.434980) can0 210#0000004100000000
(1535283831.435216) can0 1E1#8101300500000000
(1535283831.435444) can0 218#0000000000000000
(1535283831.435685) can0 312#07D1000009D007D0
(1535283831.435939) can0 308#0000000020FF03FF
(1535283831.436182) can0 3D7#048B091004F023E8
(1535283831.436433) can0 418#52FE0000BB000000
(1535283831.436668) can0 119#0000000000060E19
(1535283831.436895) can0 328#0000830000A62E37
(1535283831.437171) can0 300#008D00FF8000E06D
(1535283831.437383) can0 270#FC0479867E840385
(1535283831.437634) can0 208#002041B400000000
(1535283831.437887) can0 200#0039000000000000
(1535283831.439080) can0 149#22800000DF800E2E
(1535283831.439946) can0 151#FFFF10004D800E92
(1535283831.440879) can0 156#000000000A232E85
(1535283831.441182) can0 0C2#D7000000013000F8
(1535283831.441569) can0 408#FF30830083095502
(1535283831.441834) can0 212#0000025827D0E06C
(1535283831.441921) can0 236#00
(1535283831.442588) can0 230#074054
(1535283831.444947) can0 218#0000000000000000
(1535283831.445177) can0 312#07D1000009D007D0
(1535283831.449488) can0 423#01200000000000
(1535283831.451179) can0 0C2#D7000000014000E8
(1535283831.451820) can0 212#0000025827D0F0A1
(1535283831.452563) can0 230#075099
(1535283831.454349) can0 3D5#0BE7008B200A0F00
(1535283831.454971) can0 210#0000004100000000
(1535283831.455211) can0 1E1#8101300500000000
(1535283831.455459) can0 218#0000000000000000
(1535283831.455681) can0 312#07D1000009D007D0
(1535283831.455930) can0 308#0000000020FF03FF
(1535283831.456181) can0 3D7#048B091004F023E8
(1535283831.456428) can0 119#0000000000060F04
(1535283831.456677) can0 328#0000830000A72E37
(1535283831.456930) can0 300#008D00FF8000F06D
(1535283831.457165) can0 270#FC0479867E840385
(1535283831.457400) can0 208#002041B400000000
(1535283831.457641) can0 200#007D000000000000
(1535283831.457899) can0 418#52FE0000BB000000
(1535283831.459065) can0 149#1F800000D3800F09
(1535283831.459951) can0 151#FFFF10005E800F1B
(1535283831.460850) can0 156#000000000C322F65
(1535283831.461166) can0 0C2#D7000000015000D8
(1535283831.461448) can0 236#00
(1535283831.461850) can0 212#0000025827D000DE
(1535283831.462562) can0 230#0760D3
(1535283831.464931) can0 218#0000000000000000
(1535283831.465155) can0 312#07D1000009D007D0
(1535283831.469303) can0 423#01200000000000
(1535283831.471181) can0 0C2#D7000000016000C8
(1535283831.471827) can0 212#0000025827D01013
(1535283831.472588) can0 230#07701E
(1535283831.474473) can0 3D5#0BE7008B200A1000
(1535283831.474971) can0 210#0000004100000000
(1535283831.475205) can0 1E1#8101300500000000
(1535283831.475458) can0 218#0000000000000000
(1535283831.475698) can0 312#07D1000009D007D0
(1535283831.475947) can0 308#0000000020FF03FF
(1535283831.476171) can0 3D7#048B091004F023E8
(1535283831.476421) can0 418#52FE0000BB000000
(1535283831.476670) can0 119#00000000000600BF
(1535283831.476922) can0 328#0000830000A02E37
(1535283831.477144) can0 300#000D00FF0000006D
(1535283831.477387) can0 270#FC0479867F840385
(1535283831.477638) can0 208#002041B400000000
(1535283831.477879) can0 200#0041000000000000
(1535283831.479077) can0 149#1F800000CA800029
(1535283831.479954) can0 151#FFFF10006C80008B
(1535283831.480873) can0 156#000000000E2020F1
(1535283831.481151) can0 0C2#D7000000017000B8
(1535283831.481468) can0 236#00
(1535283831.481829) can0 212#0000025827D02059
(1535283831.482631) can0 230#078061
(1535283831.484922) can0 218#0000000000000000
(1535283831.485140) can0 312#07D1000009D007D0
(1535283831.489471) can0 423#01200000000000
(1535283831.491151) can0 0C2#D7000000018000A8
(1535283831.491803) can0 212#0000025827D03094
(1535283831.492564) can0 230#0790AC
(1535283831.494147) can0 3D5#0BE7008B200A1000
(1535283831.494927) can0 0E0#0087000000000000
(1535283831.495148) can0 1E1#8101300500000000
(1535283831.495397) can0 168#000000C151000060
(1535283831.495644) can0 312#07D1000009D007D0
(1535283831.495887) can0 210#0000004100000000
(1535283831.496171) can0 218#0000000000000000
(1535283831.496419) can0 308#0000000020FF03FF
(1535283831.496668) can0 119#00000000000601A2
(1535283831.496886) can0 318#58090007FF630058
(1535283831.497156) can0 328#0000830000A12E37
(1535283831.497391) can0 300#000D00FF0000106D
(1535283831.497611) can0 270#FC04798680840385
(1535283831.497861) can0 208#002041B400000000
(1535283831.498161) can0 200#0005000000000000
(1535283831.498358) can0 338#2070C20000000000
(1535283831.498597) can0 358#0974209680960974
(1535283831.498859) can0 3CE#062C085D00000000
(1535283831.499068) can0 149#1F800000D0800123
(1535283831.499303) can0 3D7#048B091004F023E8
(1535283831.499564) can0 3F2#6464646400000000
(1535283831.499816) can0 418#52FE0000BB000000
(1535283831.500036) can0 151#FFFF100067800116
(1535283831.500287) can0 448#0F00000000000F1B
(1535283831.500537) can0 508#08001FF68BFC063F
(1535283831.500815) can0 518#37000000FF7FC8C8
(1535283831.501034) can0 156#00000000102821A7
(1535283831.501290) can0 0C2#D700000001900098
(1535283831.501514) can0 608#4100418700000000
(1535283831.501615) can0 236#00
(1535283831.501881) can0 212#0000025827D040CD
(1535283831.502562) can0 230#07A0E6
(1535283831.504904) can0 218#0000000000000000
(1535283831.505144) can0 312#07D1000009D007D0
(1535283831.509410) can0 423#01200000000000
(1535283831.510331) can0 452#0000000000000000
(1535283831.511167) can0 0C2#D700000001A00088
(1535283831.511583) can0 512#041E1FFF00FF0000
(1535283831.511825) can0 212#0000025827D05000
(1535283831.511916) can0 2F1#00
(1535283831.512631) can0 230#07B02B
(1535283831.514185) can0 3D5#0BE7008B200A1000
(1535283831.514957) can0 210#0000004100000000
(1535283831.515203) can0 1E1#8101300500000000
(1535283831.515454) can0 218#0000000000000000
(1535283831.515704) can0 312#07D1000009D007D0
(1535283831.515926) can0 308#0000000020FF03FF
(1535283831.516175) can0 3D7#048B091004F023E8
(1535283831.516424) can0 119#0000000000060285
(1535283831.516673) can0 328#0000830000A22E37
(1535283831.516893) can0 300#008D00FF8000206D
(1535283831.517150) can0 270#FC0479867F840385
(1535283831.517393) can0 208#002041B400000000
(1535283831.517642) can0 200#0009000000000000
(1535283831.517891) can0 418#52FE0000BB000000
(1535283831.519093) can0 149#1F800000DA80020B
(1535283831.519957) can0 151#FFFF100067800231
(1535283831.520289) can0 443#8000000000000200
(1535283831.520875) can0 156#00000000120022AC
(1535283831.521174) can0 0C2#D700000001B00078
(1535283831.521595) can0 504#0000000004E30000
(1535283831.521826) can0 212#0000025827D0604A
(1535283831.521917) can0 236#00
(1535283831.522619) can0 230#07C072
(1535283831.524941) can0 218#0000000000000000
(1535283831.525168) can0 312#07D1000009D007D0
(1535283831.529301) can0 423#01200000000000
(1535283831.531180) can0 0C2#D700000001C00068
(1535283831.531609) can0 412#3600009F5B8A2011
(1535283831.531864) can0 2D5#02004E1103D20000
(1535283831.532144) can0 212#0000025827D07087
(1535283831.532566) can0 230#07D0BF
(1535283831.534158) can0 3D5#0BE7008B200A1000
(1535283831.534959) can0 210#0000004100000000
(1535283831.535204) can0 1E1#8101300500000000
(1535283831.535451) can0 218#0000000000000000
(1535283831.535673) can0 312#07D1000009D007D0
(1535283831.535926) can0 308#0000000020FF03FF
(1535283831.536178) can0 3D7#048B091004F023E8
(1535283831.536426) can0 119#00000000000703D4
(1535283831.536642) can0 328#0000830000A32E37
(1535283831.536887) can0 300#008D00FF8000306D
(1535283831.537181) can0 270#FC0479867F840385
(1535283831.537392) can0 208#002041B400000000
(1535283831.537634) can0 200#004D000000000000
(1535283831.537884) can0 418#52FE0000BB000000
(1535283831.539078) can0 149#24800000D88003F6
(1535283831.539925) can0 151#FFFF1000628003A5
(1535283831.540894) can0 156#00000000022023DC
(1535283831.541211) can0 0C2#D700000001D00058
(1535283831.541643) can0 408#FF30830083095502
(1535283831.541890) can0 212#0000025827D080F8
(1535283831.541976) can0 236#00
(1535283831.542617) can0 230#07E0F5
(1535283831.544920) can0 218#0000000000000000
(1535283831.545193) can0 312#07D1000009D007D0
(1535283831.549622) can0 423#01200000000000
(1535283831.551222) can0 0C2#D700000001E00048
(1535283831.551828) can0 212#0000025827D09035
(1535283831.552618) can0 230#07F038
(1535283831.554190) can0 3D5#0BE7008B200A1000
(1535283831.554969) can0 210#0000004100000000
(1535283831.555204) can0 1E1#8101300500000000
(1535283831.555509) can0 218#0000000000000000
(1535283831.555699) can0 312#07D1000009D007D0
(1535283831.555968) can0 308#0000000020FF03FF
(1535283831.556195) can0 3D7#048B091004F023E8
(1535283831.556428) can0 119#0000000000070487
(1535283831.556658) can0 328#0000830000A42E37
(1535283831.556920) can0 300#000D00FF0000406D
(1535283831.557182) can0 270#FC0479867F840385
(1535283831.557390) can0 208#002041B400000000
(1535283831.557644) can0 200#0011000000000000
(1535283831.557879) can0 418#52FE0000BB000000
(1535283831.559066) can0 149#29800000E6800462
(1535283831.559967) can0 151#FFFF1000608004F5
(1535283831.560879) can0 156#000000000420248A
(1535283831.561254) can0 0C2#D700000001F00038
(1535283831.561554) can0 236#00
(1535283831.561820) can0 212#0000025827D0A07F
(1535283831.562642) can0 230#070047
(1535283831.564903) can0 218#0000000000000000
(1535283831.565169) can0 312#07D1000009D007D0
(1535283831.569389) can0 423#01200000000000
(1535283831.571249) can0 0C2#D700000001000028
(1535283831.571837) can0 212#0000025827D0B0B2
(1535283831.572676) can0 230#07108A
(1535283831.574488) can0 3D5#0BE7008B200A0F00
(1535283831.574978) can0 210#0000004100000000
(1535283831.575223) can0 1E1#8101300500000000
(1535283831.575453) can0 218#0000000000000000
(1535283831.575689) can0 312#07D1000009D007D0
(1535283831.575952) can0 308#0000000020FF03FF
(1535283831.576189) can0 3D7#048B091004F023E8
(1535283831.576448) can0 119#000000000007059A
(1535283831.576693) can0 328#0000830000A52E37
(1535283831.576970) can0 300#000D00FF0000506D
(1535283831.577205) can0 270#FC0479867F840385
(1535283831.577404) can0 208#002041B400000000
(1535283831.577660) can0 200#0055000000000000
(1535283831.577893) can0 418#52FE0000BB000000
(1535283831.579097) can0 149#24800000DF800532
(1535283831.579943) can0 151#FFFF10005780054A
(1535283831.580885) can0 156#00000000060025E1
(1535283831.581284) can0 0C2#D700000001100018
(1535283831.581597) can0 236#00
(1535283831.581859) can0 212#0000025827D0C0EB
(1535283831.582663) can0 230#0720C0
(1535283831.584913) can0 218#0000000000000000
(1535283831.585208) can0 312#07D1000009D007D0
(1535283831.589591) can0 423#01200000000000
(1535283831.591309) can0 0C2#D700000001200008
(1535283831.591843) can0 212#0000025827D0D026
(1535283831.592666) can0 230#07300D
(1535283831.594317) can0 3D5#0BE7008B200A1000
(1535283831.594938) can0 0E0#0087000000000000
(1535283831.595179) can0 1E1#8101300500000000
(1535283831.595406) can0 168#000000C151000060
(1535283831.595678) can0 312#07D1000009D007D0
(1535283831.595907) can0 210#0000004100000000
(1535283831.596178) can0 218#0000000000000000
(1535283831.596441) can0 308#0000000020FF03FF
(1535283831.596677) can0 119#000000000008061E
(1535283831.596907) can0 318#58090007FF630058
(1535283831.597217) can0 328#0000830000A62E37
(1535283831.597401) can0 300#008D00FF8000606D
(1535283831.597640) can0 270#FC0479867F840385
(1535283831.597858) can0 208#002041B400000000
(1535283831.598190) can0 200#0059000000000000
(1535283831.598359) can0 338#2070C10000000000
(1535283831.598599) can0 358#0974209680960974
(1535283831.598831) can0 3D7#048B091004F023E8
(1535283831.599075) can0 149#22800000D58006C9
(1535283831.599334) can0 418#52FE0000BB000000
(1535283831.599575) can0 448#0F00000000000F1B
(1535283831.599836) can0 508#08001FF68BFC063F
(1535283831.600071) can0 151#FFFF100059800664
(1535283831.600322) can0 518#38000000FF7FC8C8
(1535283831.600582) can0 608#4100418700000000
(1535283831.600905) can0 156#00000000021226EC
(1535283831.601297) can0 0C2#D7000000013000F8
(1535283831.601633) can0 236#00
(1535283831.601903) can0 212#0000025827D0E06C
(1535283831.602691) can0 230#074054
(1535283831.604929) can0 218#0000000000000000
(1535283831.605205) can0 312#07D1000009D007D0
(1535283831.605408) can0 2FF#06C004FFFFFFFFFE
(1535283831.609549) can0 423#01200000000000
(1535283831.610358) can0 452#0000000000000000
(1535283831.611337) can0 0C2#D7000000014000E8
(1535283831.611705) can0 512#041E1FFF00FF0000
(1535283831.611957) can0 212#0000025827D0F0A1
(1535283831.612719) can0 230#075099
(1535283831.614263) can0 3D5#0BE7008B200A1000
(1535283831.614309) can0 2F1#00
(1535283831.614988) can0 210#0000004100000000
(1535283831.615252) can0 1E1#8101300500000000
(1535283831.615479) can0 218#0000000000000000
(1535283831.615745) can0 312#07D1000009D007D0
(1535283831.615975) can0 308#0000000020FF03FF
(1535283831.616231) can0 3D7#048B091004F023E8
(1535283831.616464) can0 418#52FE0000BB000000
(1535283831.616696) can0 119#0000000000080703
(1535283831.616954) can0 328#0000830000A72E37
(1535283831.617197) can0 300#008D00FF8000706D
(1535283831.617435) can0 270#FC0479867F840385
(1535283831.617664) can0 208#002041B200000000
(1535283831.617927) can0 200#001D000000000000
(1535283831.619142) can0 149#22800000D38007D1
(1535283831.620018) can0 151#FFFF100059800779
(1535283831.620351) can0 443#8000000000000200
(1535283831.620932) can0 156#00000000040F277B
(1535283831.621349) can0 0C2#D7000000015000D8
(1535283831.621808) can0 504#0000000004E30000
(1535283831.622032) can0 212#0000025827D000DE
(1535283831.622130) can0 236#00
(1535283831.622705) can0 230#0760D3
(1535283831.624970) can0 218#0000000000000000
(1535283831.625206) can0 312#07D1000009D007D0
(1535283831.629465) can0 423#01200000000000
(1535283831.631441) can0 0C2#D7000000016000C8
(1535283831.631808) can0 412#3600009F5B892011
(1535283831.632060) can0 212#0000025827D01013
(1535283831.632692) can0 230#07701E
(1535283831.634214) can0 3D5#0BE7008B200A1000
(1535283831.634994) can0 210#0000004100000000
(1535283831.635235) can0 1E1#8101300500000000
(1535283831.635471) can0 218#0000000000000000
(1535283831.635703) can0 312#07D1000009D007D0
(1535283831.635959) can0 308#0000000020FF03FF
(1535283831.636202) can0 3D7#048B091004F023E8
(1535283831.636458) can0 418#52FE0000BB000000
(1535283831.636689) can0 119#00000000000808B8
(1535283831.636920) can0 328#0000830000A02E37
(1535283831.637243) can0 300#000D00FF0000806D
(1535283831.637386) can0 270#FC0479867F840385
(1535283831.637639) can0 208#002041B200000000
(1535283831.637899) can0 200#0021000000000000
(1535283831.639076) can0 149#22800000D88008EA
(1535283831.639931) can0 151#FFFF1000578008CB
(1535283831.640873) can0 156#00000000060228F8
(1535283831.641336) can0 0C2#D7000000017000B8
(1535283831.641777) can0 408#FF30830083095502
(1535283831.642004) can0 212#0000025827D02059
(1535283831.642162) can0 236#00
(1535283831.642770) can0 230#078061
(1535283831.644911) can0 218#0000000000000000
(1535283831.645311) can0 312#07D1000009D007D0
(1535283831.649568) can0 423#01200000000000
(1535283831.651376) can0 0C2#D7000000018000A8
(1535283831.651838) can0 212#0000025827D03094
(1535283831.652669) can0 230#0790AC
(1535283831.654257) can0 3D5#0BE7008B200A0F00
(1535283831.654951) can0 210#0000004100000000
(1535283831.655191) can0 1E1#8101300500000000
(1535283831.655437) can0 218#0000000000000000
(1535283831.655691) can0 312#07D1000009D007D0
(1535283831.655932) can0 308#0000000020FF03FF
(1535283831.656155) can0 3D7#048B091004F023E8
(1535283831.656434) can0 418#52FE0000BB000000
(1535283831.656650) can0 119#00000000000809A5
(1535283831.656924) can0 328#0000830000A12E37
(1535283831.657208) can0 300#000D00FF0000906D
(1535283831.657397) can0 270#FC0479867F840385
(1535283831.657641) can0 208#002041AD00000000
(1535283831.657876) can0 200#0065000000000000
(1535283831.659095) can0 149#22800000DE8009F2
(1535283831.659935) can0 151#FFFF1000578009D6
(1535283831.660880) can0 156#0000000008052915
(1535283831.661380) can0 0C2#D700000001900098
(1535283831.661843) can0 212#0000025827D040CD
(1535283831.661904) can0 236#00
(1535283831.662671) can0 230#07A0E6
(1535283831.664909) can0 218#0000000000000000
(1535283831.665160) can0 312#07D1000009D007D0
(1535283831.669487) can0 423#01200000000000
(1535283831.671400) can0 0C2#D700000001A00088
(1535283831.671843) can0 212#0000025827D05000
(1535283831.672675) can0 230#07B02B
(1535283831.674538) can0 3D5#0BE7008B200A0F00
(1535283831.674970) can0 210#0000004100000000
(1535283831.675202) can0 1E1#8101300500000000
(1535283831.675455) can0 218#0000000000000000
(1535283831.675706) can0 312#07D1000009D007D0
(1535283831.675956) can0 308#0000000020FF03FF
(1535283831.676184) can0 3D7#048B091004F023E8
(1535283831.676432) can0 418#52FE0000BB000000
(1535283831.676679) can0 119#0000000000080A82
(1535283831.676928) can0 328#0000830000A22E37
(1535283831.677150) can0 300#008D00FF8000A06D
(1535283831.677402) can0 270#FC0479867F840385
(1535283831.677650) can0 208#002041A300000000
(1535283831.677888) can0 200#0069000000000000
(1535283831.679171) can0 149#2D800000DF800A06
(1535283831.679942) can0 151#FFFF10005A800A74
(1535283831.680886) can0 156#000000000A122A7C
(1535283831.681398) can0 0C2#D700000001B00078
(1535283831.681816) can0 212#0000025827D0604A
(1535283831.681917) can0 236#00
(1535283831.682752) can0 230#07C072
(1535283831.684925) can0 218#0000000000000000
(1535283831.685247) can0 312#07D1000009D007D0
(1535283831.689658) can0 423#01200000000000
(1535283831.691407) can0 0C2#D700000001C00068
(1535283831.691844) can0 212#0000025827D07087
(1535283831.692714) can0 230#07D0BF
(1535283831.694086) can0 3D5#0BE7008B200A1000
(1535283831.694929) can0 0E0#0087000000000000
(1535283831.695148) can0 1E1#8101300500000000
(1535283831.695412) can0 168#000000C151000060
(1535283831.695644) can0 312#07D1000009D007D0
(1535283831.695932) can0 210#0000004100000000
(1535283831.696187) can0 218#0000000000000000
(1535283831.696409) can0 119#0000000000080B9F
(1535283831.696638) can0 308#0000000020FF03FF
(1535283831.696902) can0 328#0000830000A32E37
(1535283831.697207) can0 300#008D00FF8000B06D
(1535283831.697389) can0 270#FC0479867F840385
(1535283831.697625) can0 208#0020419000000000
(1535283831.697890) can0 200#002D000000000000
(1535283831.698155) can0 318#58090007FF630058
(1535283831.698354) can0 338#2070C10000000000
(1535283831.698626) can0 358#0974209680960974
(1535283831.698847) can0 3D7#048B091004F023E8
(1535283831.699081) can0 149#2D800000D7800B17
(1535283831.699334) can0 418#52FE0000BB000000
(1535283831.699563) can0 448#0F00000000000F1B
(1535283831.699825) can0 508#08001FF68BFC063F
(1535283831.700057) can0 151#FFFF10005B800BE6
(1535283831.700307) can0 518#39000000FF7FC8C8
(1535283831.700537) can0 608#4100418700000000
(1535283831.700876) can0 156#000000000C142BD1
(1535283831.701439) can0 0C2#D700000001D00058
(1535283831.701847) can0 212#0000025827D080F8
(1535283831.701915) can0 236#00
(1535283831.702680) can0 230#07E0F5
(1535283831.704915) can0 218#0000000000000000
(1535283831.705186) can0 312#07D1000009D007D0
(1535283831.709658) can0 423#01200000000000
(1535283831.710345) can0 452#0000000000000000
(1535283831.711449) can0 0C2#D700000001E00048
(1535283831.711843) can0 512#041E1FFF00FF0000
(1535283831.712067) can0 212#0000025827D09035
(1535283831.712750) can0 230#07F038
(1535283831.714101) can0 3D5#0BE7008B200A1000
(1535283831.714966) can0 210#0000004100000000
(1535283831.715202) can0 1E1#8101300500000000
(1535283831.715449) can0 218#0000000000000000
(1535283831.715684) can0 312#07D1000009D007D0
(1535283831.715921) can0 308#0000000020FF03FF
(1535283831.716173) can0 3D7#048B091004F023E8
(1535283831.716420) can0 418#52FE0000BB000000
(1535283831.716672) can0 119#0000000000080CCC
(1535283831.716746) can0 2F1#00
(1535283831.717014) can0 328#0000830000A42E37
(1535283831.717280) can0 300#000D00FF0000C06D
(1535283831.717502) can0 270#FC0479867F840385
(1535283831.717751) can0 208#0020416B00000000
(1535283831.717998) can0 200#0071000000000000
(1535283831.719096) can0 149#26800000D7800C71
(1535283831.719985) can0 151#FFFF100069800C9E
(1535283831.720335) can0 443#8000000000000200
(1535283831.720908) can0 156#000000000E332C0D
(1535283831.721481) can0 0C2#D700000001F00038
(1535283831.721863) can0 212#0000025827D0A07F
(1535283831.722172) can0 504#0000000004E30000
(1535283831.722269) can0 236#00
(1535283831.722747) can0 230#070047
(1535283831.724939) can0 218#0000000000000000
(1535283831.725189) can0 312#07D1000009D007D0
(1535283831.729564) can0 423#01200000000000
(1535283831.731496) can0 0C2#D700000001000028
(1535283831.731710) can0 2D5#02004E1103D20000
(1535283831.731944) can0 412#3600009F5B8A2011
(1535283831.732201) can0 212#0000025827D0B0B2
(1535283831.732725) can0 230#07108A
(1535283831.734117) can0 3D5#0BE7008B200A1000
(1535283831.734990) can0 210#0000004100000000
(1535283831.735203) can0 1E1#8101300500000000
(1535283831.735449) can0 218#0000000000000000
(1535283831.735696) can0 312#07D1000009D007D0
(1535283831.735963) can0 308#0000000020FF03FF
(1535283831.736235) can0 3D7#048B091004F023E8
(1535283831.736473) can0 418#52FE0000BB000000
(1535283831.736710) can0 119#0000000000080DD1
(1535283831.736957) can0 328#0000830000A52E37
(1535283831.737343) can0 300#000D00FF0000D06D
(1535283831.737388) can0 270#FC04798680840385
(1535283831.737671) can0 208#0020413D00000000
(1535283831.737906) can0 200#0035000000000000
(1535283831.739128) can0 149#22800000DA800D80
(1535283831.739988) can0 151#FFFF100071800D97
(1535283831.740981) can0 156#0000000010022D8C
(1535283831.741485) can0 0C2#D700000001100018
(1535283831.741853) can0 212#0000025827D0C0EB
(1535283831.742082) can0 408#FF30830083095502
(1535283831.742266) can0 236#00
(1535283831.742756) can0 230#0720C0
(1535283831.744945) can0 218#0000000000000000
(1535283831.745168) can0 312#07D1000009D007D0
(1535283831.749675) can0 423#01200000000000
(1535283831.751530) can0 0C2#D700000001200008
(1535283831.751852) can0 212#0000025827D0D026
(1535283831.752776) can0 230#07300D
(1535283831.754285) can0 3D5#0BE7008B200A1000
(1535283831.754975) can0 210#0000004100000000
(1535283831.755217) can0 1E1#8101300500000000
(1535283831.755443) can0 218#0000000000000000
(1535283831.755688) can0 312#07D1000009D007D0
(1535283831.755952) can0 308#0000000020FF03FF
(1535283831.756189) can0 3D7#048B091004F023E8
(1535283831.756435) can0 119#0000000000080EF6
(1535283831.756665) can0 328#0000830000A62E37
(1535283831.756909) can0 300#008D00FF8000E06D
(1535283831.757175) can0 270#FC04798680840385
(1535283831.757397) can0 208#0020410C00000000
(1535283831.757651) can0 200#0039000000000000
(1535283831.757883) can0 418#52FE0000BB000000
(1535283831.759158) can0 149#1B800000D7800E7B
(1535283831.759946) can0 151#FFFF100059800E8C
(1535283831.760878) can0 156#00000000120F2E93
(1535283831.761502) can0 0C2#D7000000013000F8
(1535283831.761840) can0 212#0000025827D0E06C
(1535283831.761941) can0 236#00
(1535283831.762739) can0 230#074054
(1535283831.764912) can0 218#0000000000000000
(1535283831.765167) can0 312#07D1000009D007D0
(1535283831.769598) can0 423#01200000000000
(1535283831.771549) can0 0C2#D7000000014000E8
(1535283831.771902) can0 212#0000025827D0F0A1
(1535283831.772757) can0 230#075099
(1535283831.774423) can0 3D5#0BE7008B20090F00
(1535283831.774989) can0 210#0000004100000000
(1535283831.775227) can0 1E1#8101300500000000
(1535283831.775481) can0 218#0000000000000000
(1535283831.775725) can0 312#07D1000009D007D0
(1535283831.775956) can0 308#0000000020FF03FF
(1535283831.776191) can0 3D7#048B091004F023E8
(1535283831.776446) can0 119#0000000000080FEB
(1535283831.776692) can0 328#0000830000A72E37
(1535283831.776923) can0 300#008D00FF8000F06D
(1535283831.777208) can0 270#FC0479867F840385
(1535283831.777436) can0 208#002040E000000000
(1535283831.777665) can0 200#007D000000000000
(1535283831.777926) can0 418#52FE0000BB000000
(1535283831.779137) can0 149#1B800000D5800F65
(1535283831.779990) can0 151#FFFF100050800F12
(1535283831.780894) can0 156#0000000014132F48
(1535283831.781533) can0 0C2#D7000000015000D8
(1535283831.781858) can0 212#0000025827D000DE
(1535283831.781954) can0 236#00
(1535283831.782783) can0 230#0760D3
(1535283831.784924) can0 218#0000000000000000
(1535283831.785222) can0 312#07D1000009D007D0
(1535283831.789823) can0 423#01200000000000
(1535283831.791563) can0 0C2#D7000000016000C8
(1535283831.791877) can0 212#0000025827D01013
(1535283831.792778) can0 230#07701E
(1535283831.794136) can0 3D5#0BE7008B20091000
(1535283831.794945) can0 0E0#0087000000000000
(1535283831.795193) can0 1E1#8101300500000000
(1535283831.795463) can0 168#000000C151000060
(1535283831.795690) can0 312#07D1000009D007D0
(1535283831.795925) can0 210#0000004100000000
(1535283831.796217) can0 218#0000000000000000
(1535283831.796448) can0 119#0000000000080050
(1535283831.796683) can0 308#0000000020FF03FF
(1535283831.796948) can0 328#0000830000A02E37
(1535283831.797222) can0 300#000D00FF0000006D
(1535283831.797373) can0 270#FC0479867E840385
(1535283831.797634) can0 208#002040BE00000000
(1535283831.797893) can0 200#0041000000000000
(1535283831.798186) can0 318#58090007FF630058
(1535283831.798390) can0 338#2070C10000000000
(1535283831.798628) can0 358#0974209680960974
(1535283831.798856) can0 3D7#048B091004F023E8
(1535283831.799194) can0 149#1D800000D580000D
(1535283831.799357) can0 418#52FE0000BB000000
(1535283831.799617) can0 448#0F00000000000F1B
(1535283831.799845) can0 508#08001FF68BFC063F
(1535283831.800098) can0 151#FFFF10005980002A
(1535283831.800318) can0 518#3A000000FF7FC8C8
(1535283831.800578) can0 608#4100418700000000
(1535283831.800886) can0 156#0000000016032044
(1535283831.801581) can0 0C2#D7000000017000B8
(1535283831.801858) can0 212#0000025827D02059
(1535283831.801955) can0 236#00
(1535283831.802783) can0 230#078061
(1535283831.804924) can0 218#0000000000000000
(1535283831.805210) can0 312#07D1000009D007D0
(1535283831.809772) can0 423#01200000000000
(1535283831.810341) can0 452#0000000000000000
(1535283831.811577) can0 0C2#D7000000018000A8
(1535283831.811852) can0 212#0000025827D03094
(1535283831.812087) can0 512#041E1FFF00FF0000
(1535283831.812780) can0 230#0790AC
(1535283831.814110) can0 3D5#0BE7008B20090F00
(1535283831.814979) can0 210#0000004100000000
(1535283831.815197) can0 1E1#8101300500000000
(1535283831.815445) can0 218#0000000000000000
(1535283831.815705) can0 312#07D1000009D007D0
(1535283831.815937) can0 308#0000000020FF03FF
(1535283831.816196) can0 3D7#048B091004F023E8
(1535283831.816427) can0 119#000000000008014D
(1535283831.816657) can0 328#0000830000A12E37
(1535283831.816922) can0 300#000D00FF0000106D
(1535283831.817173) can0 270#FC0479867F840385
(1535283831.817402) can0 208#002040B200000000
(1535283831.817644) can0 200#0005000000000000
(1535283831.817937) can0 418#52FE0000BB000000
(1535283831.819145) can0 149#24800000D780014A
(1535283831.819291) can0 2F1#00
(1535283831.820007) can0 151#FFFF10005780013E
(1535283831.820347) can0 443#8000000000000200
(1535283831.820932) can0 156#00000000180821DE
(1535283831.821646) can0 0C2#D700000001900098
(1535283831.821880) can0 212#0000025827D040CD
(1535283831.822185) can0 504#0000000004E30000
(1535283831.822288) can0 236#00
(1535283831.822838) can0 230#07A0E6
(1535283831.824947) can0 218#0000000000000000
(1535283831.825193) can0 312#07D1000009D007D0
(1535283831.829659) can0 423#01200000000000
(1535283831.831598) can0 0C2#D700000001A00088
(1535283831.831854) can0 212#0000025827D05000
(1535283831.832086) can0 412#3600009F5B892011
(1535283831.832804) can0 230#07B02B
(1535283831.834225) can0 3D5#0BE7008B200A1000
(1535283831.835005) can0 210#0000004100000000
(1535283831.835209) can0 1E1#8101300500000000
(1535283831.835477) can0 218#0000000000000000
(1535283831.835709) can0 312#07D1000009D007D0
(1535283831.835965) can0 308#0000000020FF03FF
(1535283831.836207) can0 3D7#048B091004F023E8
(1535283831.836435) can0 119#000000000008026A
(1535283831.836669) can0 328#0000830000A22E37
(1535283831.836930) can0 300#008D00FF8000206D
(1535283831.837172) can0 270#FC0479867F840385
(1535283831.837400) can0 208#002040AD00000000
(1535283831.837651) can0 200#0009000000000000
(1535283831.837893) can0 418#52FE0000BB000000
(1535283831.839086) can0 149#22800000D38002B8
(1535283831.839949) can0 151#FFFF100059800210
(1535283831.840885) can0 156#000000001A3322B5
(1535283831.841628) can0 0C2#D700000001B00078
(1535283831.841848) can0 212#0000025827D0604A
(1535283831.842249) can0 408#FF30830083095502
(1535283831.842395) can0 236#00
(1535283831.842780) can0 230#07C072
(1535283831.844919) can0 218#0000000000000000
(1535283831.845181) can0 312#07D1000009D007D0
(1535283831.849796) can0 423#01200000000000
(1535283831.851650) can0 0C2#D700000001C00068
(1535283831.851896) can0 212#0000025827D07087
(1535283831.852848) can0 230#07D0BF
(1535283831.854224) can0 3D5#0BE7008B200A1000
(1535283831.856001) can0 210#0000004100000000
(1535283831.856061) can0 1E1#8101300500000000
(1535283831.856075) can0 218#0000000000000000
(1535283831.856091) can0 312#07D1000009D007D0
(1535283831.856106) can0 308#0000000020FF03FF
(1535283831.856246) can0 3D7#048B091004F023E8
(1535283831.856446) can0 119#0000000000080377
(1535283831.856680) can0 328#0000830000A32E37
(1535283831.856941) can0 300#008D00FF8000306D
(1535283831.857249) can0 270#FC0479867F840385
(1535283831.857402) can0 208#002040AA00000000
(1535283831.857654) can0 200#004D000000000000
(1535283831.857888) can0 418#52FE0000BB000000
(1535283831.859085) can0 149#26800000D880034C
(1535283831.859973) can0 151#FFFF10005B80030E
(1535283831.860909) can0 156#000000001C072341
(1535283831.861661) can0 0C2#D700000001D00058
(1535283831.861903) can0 212#0000025827D080F8
(1535283831.862188) can0 236#00
(1535283831.862906) can0 230#07E0F5
(1535283831.864965) can0 218#0000000000000000
(1535283831.865179) can0 312#07D1000009D007D0
(1535283831.869696) can0 423#01200000000000
(1535283831.871700) can0 0C2#D700000001E00048
(1535283831.871907) can0 212#0000025827D09035
(1535283831.872806) can0 230#07F038
(1535283831.874536) can0 3D5#0BE7008B200A0F00
(1535283831.874992) can0 210#0000004100000000
(1535283831.875227) can0 1E1#8101300500000000
(1535283831.875464) can0 218#0000000000000000
(1535283831.875726) can0 312#07D1000009D007D0
(1535283831.875957) can0 308#0000000020FF03FF
(1535283831.876198) can0 3D7#048B091004F023E8
(1535283831.876428) can0 119#0000000000080424
(1535283831.876669) can0 328#0000830000A42E37
(1535283831.876921) can0 300#000D00FF0000406D
(1535283831.877186) can0 270#FC0479867F840385
(1535283831.877452) can0 208#002040A500000000
(1535283831.877699) can0 200#0011000000000000
(1535283831.877910) can0 418#52FE0000BB000000
(1535283831.879083) can0 149#2B800000D780047F
(1535283831.880914) can0 151#FFFF1000668004F0
(1535283831.880976) can0 156#000000001E0D24D3
(1535283831.881689) can0 0C2#D700000001F00038
(1535283831.882056) can0 212#0000025827D0A07F
(1535283831.882585) can0 236#00
(1535283831.882961) can0 230#070047
(1535283831.884955) can0 218#0000000000000000
(1535283831.885258) can0 312#07D1000009D007D0
(1535283831.889916) can0 423#01200000000000
(1535283831.891735) can0 0C2#D700000001000028
(1535283831.891982) can0 212#0000025827D0B0B2
(1535283831.892849) can0 230#07108A
(1535283831.894102) can0 3D5#0BE7008B200A1000
(1535283831.894930) can0 0E0#0087000000000000
(1535283831.895172) can0 1E1#8101300500000000
(1535283831.895419) can0 168#000000C151000060
(1535283831.895677) can0 312#07D1000009D007D0
(1535283831.895932) can0 210#0000004100000000
(1535283831.896199) can0 218#0000000000000000
(1535283831.896424) can0 119#0000000000080539
(1535283831.896659) can0 308#0000000020FF03FF
(1535283831.896928) can0 328#0000830000A52E37
(1535283831.897207) can0 300#000D00FF0000506D
(1535283831.897403) can0 270#FC0479867F840385
(1535283831.897656) can0 208#002040A300000000
(1535283831.897901) can0 200#0055000000000000
(1535283831.898171) can0 318#58090007FF630058
(1535283831.898369) can0 338#2070C10000000000
(1535283831.898637) can0 358#0974209680960974
(1535283831.898869) can0 3D7#048B091004F023E8
(1535283831.899107) can0 149#22800000D880056B
(1535283831.899367) can0 418#52FE0000BB000000
(1535283831.899590) can0 448#0F00000000000F1B
(1535283831.899859) can0 508#08001FF68BFC063F
(1535283831.900089) can0 151#FFFF1000628005EB
(1535283831.900324) can0 518#3B000000FF7FC8C8
(1535283831.900559) can0 608#4100418700000000
(1535283831.900896) can0 156#000000002002254C
(1535283831.901696) can0 0C2#D700000001100018
(1535283831.901948) can0 212#0000025827D0C0EB
(1535283831.902009) can0 236#00
(1535283831.902847) can0 230#0720C0
(1535283831.904922) can0 218#0000000000000000
(1535283831.905174) can0 312#07D1000009D007D0
(1535283831.909861) can0 423#01200000000000
(1535283831.910352) can0 452#0000000000000000
(1535283831.911728) can0 0C2#D700000001200008
(1535283831.911953) can0 212#0000025827D0D026
(1535283831.912195) can0 512#041E1FFF00FF0000
(1535283831.912901) can0 230#07300D
(1535283831.914084) can0 3D5#0BE7008B200A0F00
(1535283831.914982) can0 210#0000004100000000
(1535283831.915225) can0 1E1#8101300500000000
(1535283831.915487) can0 218#0000000000000000
(1535283831.915724) can0 312#07D1000009D007D0
(1535283831.915957) can0 308#0000000020FF03FF
(1535283831.916190) can0 3D7#048B091004F023E8
(1535283831.916448) can0 119#000000000008061E
(1535283831.916678) can0 328#0000830000A62E37
(1535283831.916946) can0 300#008D00FF8000606D
(1535283831.917171) can0 270#FC0479867F840385
(1535283831.917416) can0 208#002040A300000000
(1535283831.917668) can0 200#0059000000000000
(1535283831.917901) can0 418#52FE0000BB000000
(1535283831.919082) can0 149#24800000E9800638
(1535283831.919950) can0 151#FFFF100065800646
(1535283831.920358) can0 443#8000000000000200
(1535283831.920904) can0 156#00000000220826AA
(1535283831.921415) can0 2F1#00
(1535283831.921733) can0 0C2#D7000000013000F8
(1535283831.921960) can0 212#0000025827D0E06C
(1535283831.922229) can0 504#0000000004E30000
(1535283831.922388) can0 236#00
(1535283831.922891) can0 230#074054
(1535283831.924953) can0 218#0000000000000000
(1535283831.925182) can0 312#07D1000009D007D0
(1535283831.929798) can0 423#01200000000000
(1535283831.931643) can0 2D5#02004E1103D20000
(1535283831.931906) can0 0C2#D7000000014000E8
(1535283831.932194) can0 212#0000025827D0F0A1
(1535283831.932364) can0 412#3600009F5B8A2011
(1535283831.932943) can0 230#075099
(1535283831.934203) can0 3D5#0BE7008B200A1000
(1535283831.934983) can0 210#0000004100000000
(1535283831.935233) can0 312#07D1000009D007D0
(1535283831.935461) can0 1E1#8101300500000000
(1535283831.935729) can0 218#0000000000000000
(1535283831.935960) can0 308#0000000020FF03FF
(1535283831.936202) can0 3D7#048B091004F023E8
(1535283831.936460) can0 119#0000000000080703
(1535283831.936704) can0 328#0000830000A72E37
(1535283831.936938) can0 300#008D00FF8000706D
(1535283831.937177) can0 270#FC0479867F840385
(1535283831.937403) can0 208#002040A500000000
(1535283831.937673) can0 200#001D000000000000
(1535283831.937906) can0 418#52FE0000BB000000
(1535283831.939111) can0 149#29800000E2800743
(1535283831.939981) can0 151#FFFF1000628007D1
(1535283831.940893) can0 156#00000000240027E8
(1535283831.941771) can0 0C2#D7000000015000D8
(1535283831.941990) can0 212#0000025827D000DE
(1535283831.942226) can0 408#FF30830083095502
(1535283831.942412) can0 236#00
(1535283831.942894) can0 230#0760D3
(1535283831.944953) can0 218#0000000000000000
(1535283831.945178) can0 312#07D1000009D007D0
(1535283831.949957) can0 423#01200000000000
(1535283831.951767) can0 0C2#D7000000016000C8
(1535283831.952029) can0 212#0000025827D01013
(1535283831.952892) can0 230#07701E
(1535283831.954266) can0 3D5#0BE7008B200A0F00
(1535283831.954982) can0 210#0000004100000000
(1535283831.955232) can0 1E1#8101300500000000
(1535283831.955490) can0 218#0000000000000000
(1535283831.955705) can0 312#07D1000009D007D0
(1535283831.955966) can0 308#0000000020FF03FF
(1535283831.956203) can0 3D7#048B091004F023E8
(1535283831.956435) can0 119#00000000000908F4
(1535283831.956700) can0 328#0000830000A02E37
(1535283831.956934) can0 300#000D00FF0000806D
(1535283831.957181) can0 270#FC0479867F840385
(1535283831.957403) can0 208#002040A500000000
(1535283831.957652) can0 200#0021000000000000
(1535283831.957908) can0 418#52FE0000BB000000
(1535283831.959180) can0 149#2D800000D1800835
(1535283831.959953) can0 151#FFFF100060800869
(1535283831.960890) can0 156#0000000002282849
(1535283831.961802) can0 0C2#D7000000017000B8
(1535283831.962027) can0 212#0000025827D02059
(1535283831.962161) can0 236#00
(1535283831.962914) can0 230#078061
(1535283831.964919) can0 218#0000000000000000
(1535283831.965178) can0 312#07D1000009D007D0
(1535283831.969863) can0 423#01200000000000
(1535283831.971794) can0 0C2#D7000000018000A8
(1535283831.972055) can0 212#0000025827D03094
(1535283831.972889) can0 230#0790AC
(1535283831.974325) can0 3D5#0BE7008B200A0F00
(1535283831.974982) can0 210#0000004100000000
(1535283831.975239) can0 1E1#8101300500000000
(1535283831.975488) can0 218#0000000000000000
(1535283831.975729) can0 312#07D1000009D007D0
(1535283831.975958) can0 308#0000000020FF03FF
(1535283831.976196) can0 3D7#048B091004F023E8
(1535283831.976457) can0 119#00000000000909E9
(1535283831.976675) can0 328#0000830000A12E37
(1535283831.976928) can0 300#000D00FF0000906D
(1535283831.977201) can0 270#FC0479867F840385
(1535283831.977430) can0 208#002040A500000000
(1535283831.977660) can0 200#0065000000000000
(1535283831.977906) can0 418#52FE0000BB000000
(1535283831.979112) can0 149#2D800000D88009AB
(1535283831.979983) can0 151#FFFF100062800977
(1535283831.980892) can0 156#000000000420290B
(1535283831.981831) can0 0C2#D700000001900098
(1535283831.982063) can0 212#0000025827D040CD
(1535283831.982184) can0 236#00
(1535283831.982894) can0 230#07A0E6
(1535283831.984952) can0 218#0000000000000000
(1535283831.985180) can0 312#07D1000009D007D0
(1535283831.990077) can0 423#01200000000000
(1535283831.991827) can0 0C2#D700000001A00088
(1535283831.992059) can0 212#0000025827D05000
(1535283831.992914) can0 230#07B02B
(1535283831.994086) can0 3D5#0BE7008B200A1000
(1535283831.994952) can0 0E0#0087000000000000
(1535283831.995173) can0 1E1#8101300500000000
(1535283831.995435) can0 168#000000C151000060
(1535283831.995668) can0 312#07D1000009D007D0
(1535283831.995932) can0 210#0000004100000000
(1535283831.996201) can0 218#0000000000000000
(1535283831.996436) can0 308#0000000020FF03FF
(1535283831.996702) can0 119#0000000000090ACE
(1535283831.996934) can0 318#58090007FF630058
(1535283831.997199) can0 328#0000830000A22E37
(1535283831.997403) can0 300#008D00FF8000A06D
(1535283831.997625) can0 270#FC0479867F840385
(1535283831.997890) can0 208#002040A500000000
(1535283831.998175) can0 200#0069000000000000
(1535283831.998371) can0 338#2070C10000000000
(1535283831.998609) can0 358#0974209680960974
(1535283831.998866) can0 3D7#048B091004F023E8
(1535283831.999080) can0 149#2D800000E4800AAE
(1535283831.999334) can0 418#52FE0000BB000000
(1535283831.999578) can0 448#0F00000000000F1B
(1535283831.999840) can0 508#08001FF68BFC063F
(1535283832.000075) can0 151#FFFF100065800ADA
(1535283832.000326) can0 518#3C000000FF7FC8C8
(1535283832.000586) can0 608#4100418700000000
(1535283832.000908) can0 156#0000000006202A2F
(1535283832.001865) can0 0C2#D700000001B00078
(1535283832.002086) can0 212#0000025827D0604A
(1535283832.002158) can0 236#00
(1535283832.002891) can0 230#07C072
(1535283832.004954) can0 218#0000000000000000
(1535283832.005177) can0 312#07D1000009D007D0
(1535283832.010087) can0 423#01200000000000
(1535283832.010351) can0 452#0000000000000000
(1535283832.011852) can0 212#0000025827D07087
(1535283832.012085) can0 0C2#D700000001C00068
(1535283832.012328) can0 512#041E1FFF00FF0000
(1535283832.012954) can0 230#07D0BF
(1535283832.014240) can0 3D5#0BE7008B200A1000
(1535283832.014984) can0 210#0000004100000000
(1535283832.015234) can0 1E1#8101300500000000
(1535283832.015462) can0 218#0000000000000000
(1535283832.015703) can0 312#07D1000009D007D0
(1535283832.015960) can0 308#0000000020FF03FF
(1535283832.016200) can0 3D7#048B091004F023E8
(1535283832.016432) can0 119#0000000000090BD3
(1535283832.016665) can0 328#0000830000A32E37
(1535283832.016925) can0 300#008D00FF8000B06D
(1535283832.017206) can0 270#FC0479867F840385
(1535283832.017402) can0 208#002040A500000000
(1535283832.017661) can0 200#002D000000000000
(1535283832.017912) can0 418#52FE0000BB000000
(1535283832.019130) can0 149#2B800000DF800BC8
(1535283832.020021) can0 151#FFFF100062800B4D
(1535283832.020362) can0 443#8000000000000200
(1535283832.020934) can0 156#0000000008212B77
(1535283832.021900) can0 212#0000025827D080F8
(1535283832.022096) can0 0C2#D700000001D00058
(1535283832.022363) can0 504#0000000004E30000
(1535283832.022527) can0 236#00
(1535283832.023000) can0 230#07E0F5
(1535283832.024221) can0 2F1#00
(1535283832.024924) can0 218#0000000000000000
(1535283832.025190) can0 312#07D1000009D007D0
(1535283832.030019) can0 423#01200000000000
(1535283832.031891) can0 212#0000025827D09035
(1535283832.032084) can0 0C2#D700000001E00048
(1535283832.032441) can0 412#3600009F5B8A2011
(1535283832.032896) can0 230#07F038
(1535283832.034242) can0 3D5#0BE7008B200A1000
(1535283832.034986) can0 210#0000004100000000
(1535283832.035232) can0 1E1#8101300500000000
(1535283832.035463) can0 218#0000000000000000
(1535283832.035705) can0 312#07D1000009D007D0
(1535283832.035969) can0 308#0000000020FF03FF
(1535283832.036202) can0 3D7#048B091004F023E8
(1535283832.036436) can0 119#0000000000090C80
(1535283832.036673) can0 328#0000830000A42E37
(1535283832.036935) can0 300#000D00FF0000C06D
(1535283832.037203) can0 270#FC0479867F840385
(1535283832.037404) can0 208#002040A800000000
(1535283832.037664) can0 200#0071000000000000
(1535283832.037907) can0 418#52FE0000BB000000
(1535283832.039087) can0 149#29800000E4800C89
(1535283832.039989) can0 151#FFFF100062800C1E
(1535283832.040894) can0 156#000000000A282C31
(1535283832.041862) can0 212#0000025827D0A07F
(1535283832.042087) can0 0C2#D700000001F00038
(1535283832.042454) can0 408#FF30830083095502
(1535283832.042606) can0 236#00
(1535283832.042928) can0 230#070047
(1535283832.044921) can0 218#0000000000000000
(1535283832.045178) can0 312#07D1000009D007D0
(1535283832.050206) can0 423#01200000000000
(1535283832.051861) can0 212#0000025827D0B0B2
(1535283832.052088) can0 0C2#D700000001000028
(1535283832.052945) can0 230#07108A
(1535283832.054206) can0 3D5#0BE7008B200A1000
(1535283832.054985) can0 210#0000004100000000
(1535283832.055206) can0 1E1#8101300500000000
(1535283832.055460) can0 218#0000000000000000
(1535283832.055706) can0 312#07D1000009D007D0
(1535283832.055968) can0 308#0000000020FF03FF
(1535283832.056200) can0 3D7#048B091004F023E8
(1535283832.056432) can0 119#0000000000090D9D
(1535283832.056664) can0 328#0000830000A52E37
(1535283832.056926) can0 300#000D00FF0000D06D
(1535283832.057177) can0 270#FC0479867F840385
(1535283832.057411) can0 208#002040A800000000
(1535283832.057640) can0 200#0035000000000000
(1535283832.057906) can0 418#52FE0000BB000000
(1535283832.059110) can0 149#26800000E4800DC8
(1535283832.059955) can0 151#FFFF100062800D03
(1535283832.060895) can0 156#000000000C232DA7
(1535283832.061860) can0 212#0000025827D0C0EB
(1535283832.062087) can0 0C2#D700000001100018
(1535283832.062347) can0 236#00
(1535283832.062979) can0 230#0720C0
(1535283832.064921) can0 218#0000000000000000
(1535283832.065184) can0 312#07D1000009D007D0
(1535283832.070021) can0 423#01200000000000
(1535283832.071860) can0 212#0000025827D0D026
(1535283832.072086) can0 0C2#D700000001200008
(1535283832.072974) can0 230#07300D
(1535283832.074436) can0 3D5#0BE7008B200A1000
(1535283832.074989) can0 210#0000004100000000
(1535283832.075224) can0 1E1#8101300500000000
(1535283832.075456) can0 218#0000000000000000
(1535283832.075715) can0 312#07D1000009D007D0
(1535283832.075952) can0 308#0000000020FF03FF
(1535283832.076198) can0 3D7#048B091004F023E8
(1535283832.076434) can0 119#0000000000090EBA
(1535283832.076672) can0 328#0000830000A62E37
(1535283832.076936) can0 300#008D00FF8000E06D
(1535283832.077210) can0 270#FC0479867F840385
(1535283832.077404) can0 208#002040AA00000000
(1535283832.077660) can0 200#0039000000000000
(1535283832.077913) can0 418#52FE0000BB000000
(1535283832.079086) can0 149#24800000E4800E55
(1535283832.079953) can0 151#FFFF100062800E24
(1535283832.080893) can0 156#000000000E242E7A
(1535283832.081868) can0 212#0000025827D0E06C
(1535283832.082090) can0 0C2#D7000000013000F8
(1535283832.082341) can0 236#00
(1535283832.082916) can0 230#074054
(1535283832.084923) can0 218#0000000000000000
(1535283832.085180) can0 312#07D1000009D007D0
(1535283832.090228) can0 423#01200000000000
(1535283832.091861) can0 212#0000025827D0F0A1
(1535283832.092087) can0 0C2#D7000000014000E8
(1535283832.092976) can0 230#075099
(1535283832.094202) can0 3D5#0BE7008B200A1000
(1535283832.094952) can0 0E0#0087000000000000
(1535283832.095203) can0 1E1#8101300500000000
(1535283832.095431) can0 168#000000C151000060
(1535283832.095675) can0 312#07D1000009D007D0
(1535283832.095932) can0 210#0000004100000000
(1535283832.096202) can0 218#0000000000000000
(1535283832.096439) can0 119#0000000000090FA7
(1535283832.096700) can0 308#0000000020FF03FF
(1535283832.096935) can0 328#0000830000A72E37
(1535283832.097200) can0 300#008D00FF8000F06D
(1535283832.097405) can0 270#FC0479867F840385
(1535283832.097663) can0 208#002040AA00000000
(1535283832.097926) can0 200#007D000000000000
(1535283832.098174) can0 318#58090007FF630058
(1535283832.098415) can0 338#2070C20000000000
(1535283832.098653) can0 358#0974209680960974
(1535283832.098870) can0 3D7#048B091004F023E8
(1535283832.099106) can0 149#24800000E2800F4D
(1535283832.099352) can0 418#52FE0000BB000000
(1535283832.099612) can0 448#0F00000000000F1B
(1535283832.099840) can0 508#08001FF68BFC063F
(1535283832.100076) can0 151#FFFF100067800FB0
(1535283832.100326) can0 518#3D000000FF7FC8C8
(1535283832.100583) can0 608#4100418700000000
(1535283832.100906) can0 156#0000000010332F3B
(1535283832.101863) can0 212#0000025827D000DE
(1535283832.102175) can0 0C2#D7000000015000D8
(1535283832.102362) can0 236#00
(1535283832.102944) can0 230#0760D3
(1535283832.104919) can0 218#0000000000000000
(1535283832.105178) can0 312#07D1000009D007D0
(1535283832.110236) can0 423#01200000000000
(1535283832.110487) can0 452#0000000000000000
(1535283832.111861) can0 212#0000025827D01013
(1535283832.112177) can0 0C2#D7000000016000C8
(1535283832.112466) can0 512#041E1FFF00FF0000
(1535283832.112954) can0 230#07701E
(1535283832.114057) can0 3D5#0BE7008B200A0F00
(1535283832.114980) can0 210#0000004100000000
(1535283832.115228) can0 1E1#8101300500000000
(1535283832.115454) can0 218#0000000000000000
(1535283832.115699) can0 312#07D1000009D007D0
(1535283832.115960) can0 308#0000000020FF03FF
(1535283832.116191) can0 3D7#048B091004F023E8
(1535283832.116454) can0 119#000000000009001C
(1535283832.116691) can0 328#0000830000A02E37
(1535283832.116921) can0 300#000D00FF0000006D
(1535283832.117306) can0 270#FC0479867F840385
(1535283832.117440) can0 208#002040AA00000000
(1535283832.117663) can0 200#0041000000000000
(1535283832.117908) can0 418#52FE0000BB000000
(1535283832.119181) can0 149#22800000D3800082
(1535283832.119985) can0 151#FFFF10006780000B
(1535283832.120356) can0 443#8000000000000200
(1535283832.120908) can0 156#0000000012252082
(1535283832.121864) can0 212#0000025827D02059
(1535283832.122087) can0 0C2#D7000000017000B8
(1535283832.122483) can0 504#0000000004E30000
(1535283832.122672) can0 236#00
(1535283832.122991) can0 230#078061
(1535283832.124953) can0 218#0000000000000000
(1535283832.125183) can0 312#07D1000009D007D0
(1535283832.126264) can0 2F1#00
(1535283832.130199) can0 423#01200000000000
(1535283832.131645) can0 2D5#02004E1103D20000
(1535283832.131906) can0 212#0000025827D03094
(1535283832.132197) can0 0C2#D7000000018000A8
(1535283832.132529) can0 412#3600009F5B892011
(1535283832.133015) can0 230#0790AC
(1535283832.134045) can0 3D5#0BE7008B200A1000
(1535283832.134980) can0 210#0000004100000000
(1535283832.135231) can0 1E1#8101300500000000
(1535283832.135483) can0 218#0000000000000000
(1535283832.135700) can0 312#07D1000009D007D0
(1535283832.135957) can0 308#0000000020FF03FF
(1535283832.136195) can0 3D7#048B091004F023E8
(1535283832.136456) can0 418#52FE0000BB000000
(1535283832.136699) can0 119#0000000000090101
(1535283832.136934) can0 328#0000830000A12E37
(1535283832.137233) can0 300#000D00FF0000106D
(1535283832.137454) can0 270#FC0479867F840385
(1535283832.137675) can0 208#002040AA00000000
(1535283832.137946) can0 200#0005000000000000
(1535283832.139134) can0 149#24800000D88001CC
(1535283832.140002) can0 151#FFFF10006280019F
(1535283832.140916) can0 156#00000000142121B7
(1535283832.141882) can0 212#0000025827D040CD
(1535283832.142108) can0 0C2#D700000001900098
(1535283832.142550) can0 408#FF30830083095502
(1535283832.142700) can0 236#00
(1535283832.142997) can0 230#07A0E6
(1535283832.144976) can0 218#0000000000000000
(1535283832.145202) can0 312#07D1000009D007D0
(1535283832.150453) can0 423#01200000000000
(1535283832.151884) can0 212#0000025827D05000
(1535283832.152107) can0 0C2#D700000001A00088
(1535283832.153154) can0 230#07B02B
(1535283832.154254) can0 3D5#0BE7008B200A1000
(1535283832.155004) can0 210#0000004100000000
(1535283832.155253) can0 1E1#8101300500000000
(1535283832.155486) can0 218#0000000000000000
(1535283832.155754) can0 312#07D1000009D007D0
(1535283832.155999) can0 308#0000000020FF03FF
(1535283832.156219) can0 3D7#048B091004F023E8
(1535283832.156477) can0 119#0000000000090226
(1535283832.156728) can0 328#0000830000A22E37
(1535283832.156952) can0 300#008D00FF8000206D
(1535283832.157203) can0 270#FC0479867F840385
(1535283832.157427) can0 208#002040AA00000000
(1535283832.157687) can0 200#0009000000000000
(1535283832.157928) can0 418#52FE0000BB000000
(1535283832.159200) can0 149#26800000D6800258
(1535283832.159984) can0 151#FFFF100057800219
(1535283832.160917) can0 156#000000001626226A
(1535283832.161889) can0 212#0000025827D0604A
(1535283832.162106) can0 0C2#D700000001B00078
(1535283832.162434) can0 236#00
(1535283832.163033) can0 230#07C072
(1535283832.164974) can0 218#0000000000000000
(1535283832.165198) can0 312#07D1000009D007D0
(1535283832.170222) can0 423#01200000000000
(1535283832.171883) can0 212#0000025827D07087
(1535283832.172106) can0 0C2#D700000001C00068
(1535283832.173000) can0 230#07D0BF
(1535283832.174486) can0 3D5#0BE7008B200A0F00
(1535283832.175012) can0 210#0000004100000000
(1535283832.175288) can0 312#07D1000009D007D0
(1535283832.175509) can0 1E1#8101300500000000
(1535283832.175748) can0 218#0000000000000000
(1535283832.176010) can0 308#0000000020FF03FF
(1535283832.176252) can0 3D7#048B091004F023E8
(1535283832.176480) can0 119#000000000009033B
(1535283832.176724) can0 328#0000830000A32E37
(1535283832.176990) can0 300#008D00FF8000306D
(1535283832.177224) can0 270#FC0479867F840385
(1535283832.177436) can0 208#002040AD00000000
(1535283832.177698) can0 200#004D000000000000
(1535283832.177933) can0 418#52FE0000BB000000
(1535283832.179123) can0 149#26800000D880034C
(1535283832.179996) can0 151#FFFF100057800304
(1535283832.180905) can0 156#000000001826237E
(1535283832.181880) can0 212#0000025827D080F8
(1535283832.182109) can0 0C2#D700000001D00058
(1535283832.182432) can0 236#00
(1535283832.183035) can0 230#07E0F5
(1535283832.184977) can0 218#0000000000000000
(1535283832.185198) can0 312#07D1000009D007D0
(1535283832.190416) can0 423#01200000000000
(1535283832.191881) can0 212#0000025827D09035
(1535283832.192105) can0 0C2#D700000001E00048
(1535283832.193145) can0 230#07F038
(1535283832.194224) can0 3D5#0BE7008B200A1000
(1535283832.194974) can0 0E0#0087000000000000
(1535283832.195196) can0 312#07D1000009D007D0
(1535283832.195456) can0 168#000000C151000060
(1535283832.195697) can0 1E1#8101300500000000
(1535283832.195962) can0 210#0000004100000000
(1535283832.196217) can0 218#0000000000000000
(1535283832.196452) can0 119#0000000000090468
(1535283832.196698) can0 308#0000000020FF03FF
(1535283832.196938) can0 328#0000830000A42E37
(1535283832.197200) can0 300#000D00FF0000406D
(1535283832.197423) can0 270#FC0479867F840385
(1535283832.197673) can0 208#002040AD00000000
(1535283832.197929) can0 200#0011000000000000
(1535283832.198194) can0 318#58090007FF630058
(1535283832.198425) can0 338#2070C10000000000
(1535283832.198672) can0 358#0974209680960974
(1535283832.198890) can0 3D7#048B091004F023E8
(1535283832.199202) can0 149#26800000E2800438
(1535283832.199355) can0 418#52FE0000BB000000
(1535283832.199631) can0 448#0F00000000000F1B
(1535283832.199860) can0 508#08001FF68BFC063F
(1535283832.200099) can0 151#FFFF100057800457
(1535283832.200352) can0 518#3E000000FF7FC8C8
(1535283832.200614) can0 608#4100418700000000
(1535283832.200915) can0 156#000000001A0024EE
(1535283832.201886) can0 212#0000025827D0A07F
(1535283832.202196) can0 0C2#D700000001F00038
(1535283832.202475) can0 236#00
(1535283832.203120) can0 230#070047
(1535283832.204973) can0 218#0000000000000000
(1535283832.205201) can0 312#07D1000009D007D0
(1535283832.210357) can0 423#01200000000000
(1535283832.210615) can0 452#0000000000000000
(1535283832.211880) can0 212#0000025827D0B0B2
(1535283832.212193) can0 0C2#D700000001000028
(1535283832.212584) can0 512#041E1FFF00FF0000
(1535283832.213035) can0 230#07108A
(1535283832.214044) can0 3D5#0BE7008B200A1000
(1535283832.215009) can0 210#0000004100000000
(1535283832.215259) can0 1E1#8101300500000000
(1535283832.215506) can0 218#0000000000000000
(1535283832.215738) can0 312#07D1000009D007D0
(1535283832.216003) can0 308#0000000020FF03FF
(1535283832.216221) can0 3D7#048B091004F023E8
(1535283832.216481) can0 418#52FE0000BB000000
(1535283832.216723) can0 119#00000000000A05A1
(1535283832.216961) can0 328#0000830000A52E37
(1535283832.217221) can0 300#000D00FF0000506D
(1535283832.217446) can0 270#FC0479867F840385
(1535283832.217685) can0 208#002040B200000000
(1535283832.217949) can0 200#0055000000000000
(1535283832.219132) can0 149#24800000E280059F
(1535283832.220005) can0 151#FFFF10005780054A
(1535283832.220379) can0 443#8000000000000200
(1535283832.220928) can0 156#0000000002202592
(1535283832.221887) can0 212#0000025827D0C0EB
(1535283832.222200) can0 0C2#D700000001100018
(1535283832.222621) can0 504#0000000004E30000
(1535283832.222770) can0 236#00
(1535283832.223035) can0 230#0720C0
(1535283832.224974) can0 218#0000000000000000
(1535283832.225199) can0 312#07D1000009D007D0
(1535283832.228687) can0 2F1#00
(1535283832.230350) can0 423#01200000000000
(1535283832.231875) can0 212#0000025827D0D026
(1535283832.232189) can0 0C2#D700000001200008
(1535283832.232611) can0 412#3600009F5B892011
(1535283832.233052) can0 230#07300D
(1535283832.234108) can0 3D5#0BE7008B200A0F00
(1535283832.235005) can0 210#0000004100000000
(1535283832.235255) can0 1E1#8101300500000000
(1535283832.235520) can0 218#0000000000000000
(1535283832.235755) can0 312#07D0000009D007D0
(1535283832.235980) can0 308#0000000020FF03FF
(1535283832.236244) can0 3D7#048B091004F023E8
(1535283832.236473) can0 418#52FE0000BB000000
(1535283832.236735) can0 119#00000000000A0686
(1535283832.236970) can0 328#0000830000A62E37
(1535283832.237216) can0 300#008D00FF8000606D
(1535283832.237431) can0 270#FC0479867F840385
(1535283832.237664) can0 208#002040B400000000
(1535283832.237927) can0 200#0059000000000000
(1535283832.239168) can0 149#29800000E280065E
(1535283832.239962) can0 151#FFFF100059800664
(1535283832.240889) can0 156#00000000042026B0
(1535283832.241857) can0 212#0000025827D0E06C
(1535283832.242171) can0 0C2#D7000000013000F8
(1535283832.242610) can0 408#FF30830083095502
(1535283832.242775) can0 236#00
(1535283832.243046) can0 230#074054
(1535283832.244968) can0 218#0000000000000000
(1535283832.245179) can0 312#07D0000009D007D0
(1535283832.250579) can0 423#01200000000000
(1535283832.251854) can0 212#0000025827D0F0A1
(1535283832.252170) can0 0C2#D7000000014000E8
(1535283832.253050) can0 230#075099
(1535283832.254017) can0 3D5#0BE7008B200A1000
(1535283832.254977) can0 210#0000004100000000
(1535283832.255224) can0 1E1#8101300500000000
(1535283832.255483) can0 218#0000000000000000
(1535283832.255697) can0 312#07D0000009D007D0
(1535283832.255972) can0 308#0000000020FF03FF
(1535283832.256211) can0 3D7#048B091004F023E8
(1535283832.256456) can0 418#52FE0000BB000000
(1535283832.256691) can0 119#00000000000A079B
(1535283832.256952) can0 328#0000830000A72E37
(1535283832.257182) can0 300#008D00FF8000706D
(1535283832.257408) can0 270#FC0479867F840385
(1535283832.257668) can0 208#002040BB00000000
(1535283832.257906) can0 200#001D000000000000
(1535283832.259111) can0 149#2B800000D180075D
(1535283832.259984) can0 151#FFFF1000628007D1
(1535283832.260895) can0 156#00000000062027AE
(1535283832.261864) can0 212#0000025827D000DE
(1535283832.262203) can0 0C2#D7000000015000D8
(1535283832.262514) can0 236#00
(1535283832.263172) can0 230#0760D3
(1535283832.264952) can0 218#0000000000000000
(1535283832.265180) can0 312#07D0000009D007D0
(1535283832.270394) can0 423#01200000000000
(1535283832.271860) can0 212#0000025827D01013
(1535283832.272202) can0 0C2#D7000000016000C8
(1535283832.273048) can0 230#07701E
(1535283832.274269) can0 3D5#0BE7008B200A1000
(1535283832.274986) can0 210#0000004100000000
(1535283832.275232) can0 1E1#8101300500000000
(1535283832.275461) can0 218#0000000000000000
(1535283832.275705) can0 312#07D1000009D007D0
(1535283832.275965) can0 308#0000000020FF03FF
(1535283832.276201) can0 3D7#048B091004F023E8
(1535283832.276467) can0 418#52FE0000BB000000
(1535283832.276703) can0 119#00000000000A0820
(1535283832.276935) can0 328#0000830000A02E37
(1535283832.277204) can0 300#000D00FF0000806D
(1535283832.277428) can0 270#FC0479867F840385
(1535283832.277663) can0 208#002040C000000000
(1535283832.277928) can0 200#0021000000000000
(1535283832.279182) can0 149#22800000D88008EA
(1535283832.279954) can0 151#FFFF1000698008EA
(1535283832.280895) can0 156#000000000820281C
(1535283832.281863) can0 212#0000025827D02059
(1535283832.282235) can0 0C2#D7000000017000B8
(1535283832.282541) can0 236#00
(1535283832.283042) can0 230#078061
(1535283832.284919) can0 218#0000000000000000
(1535283832.285181) can0 312#07D1000009D007D0
(1535283832.290548) can0 423#01200000000000
(1535283832.291857) can0 212#0000025827D03094
(1535283832.292227) can0 0C2#D7000000018000A8
(1535283832.293063) can0 230#0790AC
(1535283832.294200) can0 3D5#0BE7008B200A0F00
(1535283832.294947) can0 0E0#0087000000000000
(1535283832.295173) can0 312#07D1000009D007D0
(1535283832.295415) can0 168#000000C151000060
(1535283832.295675) can0 1E1#8101300500000000
(1535283832.295922) can0 210#0000004100000000
(1535283832.296169) can0 218#0000000000000000
(1535283832.296431) can0 308#0000000020FF03FF
(1535283832.296665) can0 119#00000000000A093D
(1535283832.296924) can0 318#58090007FF630058
(1535283832.297196) can0 328#0000830000A12E37
(1535283832.297398) can0 300#000D00FF0000906D
(1535283832.297650) can0 270#FC04798680840385
(1535283832.297900) can0 208#002040CA00000000
(1535283832.298167) can0 200#0065000000000000
(1535283832.298369) can0 338#2070C20000000000
(1535283832.298636) can0 358#0974209680960974
(1535283832.298860) can0 3D7#048B091004F023E8
(1535283832.299169) can0 149#26800000E68009BF
(1535283832.299335) can0 418#52FE0000BB000000
(1535283832.299600) can0 448#0F00000000000F1B
(1535283832.299830) can0 508#08001FF68BFC063F
(1535283832.300076) can0 151#FFFF10006C80097E
(1535283832.300320) can0 518#3F000000FF7FC8C8
(1535283832.300583) can0 608#4100418700000000
(1535283832.300887) can0 156#000000000A002977
(1535283832.301860) can0 212#0000025827D040CD
(1535283832.302229) can0 0C2#D700000001900098
(1535283832.302570) can0 236#00
(1535283832.303044) can0 230#07A0E6
(1535283832.304945) can0 218#0000000000000000
(1535283832.305174) can0 312#07D1000009D007D0
(1535283832.310391) can0 452#0000000000000000
(1535283832.310610) can0 423#01200000000000
(1535283832.311853) can0 212#0000025827D05000
(1535283832.312260) can0 0C2#D700000001A00088
(1535283832.312672) can0 512#041E1FFF00FF0000
(1535283832.313054) can0 230#07B02B
(1535283832.314198) can0 3D5#0BE7008B20091000
(1535283832.314981) can0 210#0000004100000000
(1535283832.315229) can0 1E1#8101300500000000
(1535283832.315485) can0 218#0000000000000000
(1535283832.315697) can0 312#07D1000009D007D0
(1535283832.315960) can0 308#0000000020FF03FF
(1535283832.316195) can0 3D7#048B091004F023E8
(1535283832.316459) can0 418#52FE0000BB000000
(1535283832.316694) can0 119#0000000000000AD8
(1535283832.316927) can0 328#0000830000A22E37
(1535283832.317176) can0 300#008D00FF8000A06D
(1535283832.317396) can0 270#FC04798680840385
(1535283832.317659) can0 208#002040D100000000
(1535283832.317916) can0 200#0069000000000000
(1535283832.319164) can0 149#24800000E4800A21
(1535283832.319943) can0 151#FFFF100060800A53
(1535283832.320346) can0 443#8000000000000200
(1535283832.320893) can0 156#0000000002202A29
